! Created Fri Sep 18 17:03:59 2020
# hz S ma R 50
! 4 Port Network Data from SP1.SP block
! freq  magS11  angS11  magS12  angS12  magS13  angS13  magS14  angS14  
!       magS21  angS21  magS22  angS22  magS23  angS23  magS24  angS24  
!       magS31  angS31  magS32  angS32  magS33  angS33  magS34  angS34  
!       magS41  angS41  magS42  angS42  magS43  angS43  magS44  angS44  
!     
                 0    4.94476531e-05                  0     9.49382664e-20                  0        0.999950552                  0     9.49382503e-20                180
                    9.4938226e-20                  0     2.09870044e-05                  0     9.49382907e-20                180        0.999979013                  0
                      0.999950552                  0     9.49382503e-20                180     4.94476531e-05                  0     9.49382664e-20                  0
                   9.49382907e-20                180        0.999979013                  0      9.4938226e-20                  0     2.09870044e-05                  0

             10000    8.45882209e-05        -59.8832123     1.33901485e-08          89.990085        0.999957548     -0.00424858079     1.33901543e-08        -90.0095917
                   1.33901512e-08          89.990085     1.51942624e-05        -9.45823074     1.33901517e-08        -90.0134822        0.999985012    -0.000180067028
                      0.999957548     -0.00424858079     1.33901545e-08        -90.0134822     8.45866041e-05        -59.8825539     1.33901487e-08         89.9868407
                   1.33901516e-08        -90.0095917        0.999985012    -0.000180067028     1.33901514e-08         89.9868407     1.51942354e-05        -9.45767329

            100000    0.000732742873        -86.7207819     1.33881715e-07         89.9015398        0.999957274      -0.0424772496     1.33881695e-07         -90.095246
                   1.33881693e-07         89.9015446     2.89625062e-05         -58.815972      1.3388189e-07        -90.1341581        0.999985003     -0.00178968141
                      0.999957274      -0.0424772496     1.33881867e-07        -90.1341533     0.000732724255        -86.7204679     1.33881888e-07          89.869051
                   1.33881718e-07        -90.0952508        0.999985003     -0.00178968141     1.33881865e-07         89.8690558     2.89611107e-05        -58.8148267

           1000000     0.00731522491        -90.0905719     1.32665116e-06         89.4193278         0.99993043       -0.424754825     1.32665135e-06        -90.5485858
                   1.32665116e-06         89.4193242     0.000248446414        -86.4747013     1.32674917e-06        -90.9421278        0.999984626       -0.017885418
                       0.99993043       -0.424754825     1.32674917e-06        -90.9421314      0.00731504232        -90.0882896     1.32674938e-06         89.0899677
                   1.32665135e-06        -90.5485822        0.999984626       -0.017885418     1.32674938e-06         89.0899641     0.000248429778        -86.4796673

          10000000      0.0729629837        -94.2153724     1.30458218e-05          91.351525        0.997288972        -4.23980066     1.30460177e-05        -88.3275498
                   1.30458218e-05          91.351525      0.00248504565         -89.757317     1.29907853e-05        -92.3544569         0.99997974       -0.178553047
                      0.997288972        -4.23980066     1.29907853e-05        -92.3544569       0.0729612579        -94.1928782     1.29909803e-05         87.9664683
                   1.30460177e-05        -88.3275498         0.99997974       -0.178553047     1.29909803e-05         87.9664683      0.00248486141        -89.8078857

         100000000       0.590083544        -126.821348     0.000152592341         98.2770639        0.807218312        -36.7166162     0.000152821356        -78.5167129
                   0.000152592341         98.2770639       0.0248666198        -91.4547707     0.000113166459        -106.219345        0.999656569        -1.78399851
                      0.807218312        -36.7166162     0.000113166459        -106.219345        0.590062667        -126.595752     0.000113336302         76.9868786
                   0.000152821356        -78.5167129        0.999656569        -1.78399851     0.000113336302         76.9868786       0.0248631483         -91.955622

         110000000        0.62650863        -129.518192     0.000170766963         98.1485282        0.779278026        -39.4020032     0.000171077034        -78.3253389
                   0.000170766963         98.1485282       0.0273532814        -91.6119761     0.000121926473        -107.089818        0.999590028         -1.9622526
                      0.779278026        -39.4020032     0.000121926473        -107.089818        0.626485807        -129.269986     0.000122147862         76.4363148
                   0.000171077034        -78.3253389        0.999590028         -1.9622526     0.000122147862         76.4363148       0.0273492968         -92.162593

         120000000       0.659225795        -132.032799     0.000189261163         97.9318061         0.75179539        -41.9052066     0.000189670076        -78.2223552
                   0.000189261163         97.9318061       0.0298395825        -91.7686915     0.000130308461         -107.83723        0.999517392        -2.14048402
                       0.75179539        -41.9052066     0.000130308461         -107.83723         0.65920113        -131.761987     0.000130590003          76.008609
                   0.000189670076        -78.2223552        0.999517392        -2.14048402     0.000130590003          76.008609       0.0298350643        -92.3690591

         130000000       0.688564724        -134.375292     0.000208012163         97.6475125        0.725011426        -44.2363407     0.000208539526        -78.1871656
                   0.000208012163         97.6475125       0.0323254623        -91.9250027     0.000138359598        -108.473072        0.999438654        -2.31869203
                      0.725011426        -44.2363407     0.000138359598        -108.473072        0.688538318        -134.081877     0.000138710374           75.69225
                   0.000208539526        -78.1871656        0.999438654        -2.31869203     0.000138710374           75.69225       0.0323203911        -92.5751096

         140000000       0.714853373         -136.55662      0.00022696567         97.3125873        0.699096507        -46.4063477     0.000227632893        -78.2028485
                    0.00022696567         97.3125873       0.0348108649        -92.0809735     0.000146125251        -109.009095        0.999353807        -2.49687562
                      0.699096507        -46.4063477     0.000146125251        -109.009095        0.714825317        -136.240606     0.000146554823         75.4754687
                   0.000227632893        -78.2028485        0.999353807        -2.49687562     0.000146554823         75.4754687        0.034805222        -92.7808103

         150000000       0.738406255        -138.588017     0.000246075874         96.9406676        0.674163276        -48.4264582     0.000246906145        -78.2557853
                   0.000246075874         96.9406676       0.0372957377        -92.2366525     0.000153647606        -109.456822        0.999262845        -2.67503361
                      0.674163276        -48.4264582     0.000153647606        -109.456822        0.738376634        -138.249408      0.00015416602         75.3467255
                   0.000246906145        -78.2557853        0.999262845        -2.67503361      0.00015416602         75.3467255       0.0372895047        -92.9862116

         160000000       0.759517334        -140.480618      0.00026530485         96.5425578        0.650278637        -50.3078017     0.000266323115        -78.3351896
                    0.00026530485         96.5425578       0.0397800304        -92.3920783     0.000160964923        -109.827212        0.999165766        -2.85316465
                      0.650278637        -50.3078017     0.000160964923        -109.827212        0.759486225        -140.119417     0.000161582722         75.2950407
                   0.000266323115        -78.3351896        0.999165766        -2.85316465     0.000161582722         75.2950407       0.0397731894         -93.191353

         170000000       0.778456315        -142.245188     0.000284621665         96.1267081        0.627474239         -52.061141     0.000285854604        -78.4326296
                   0.000284621665         96.1267081       0.0422636939        -92.5472817      0.00016811125        -110.130463        0.999062569        -3.03126735
                      0.627474239         -52.061141      0.00016811125        -110.130463         0.77842379        -141.861399     0.000168839483         75.3101996
                   0.000285854604        -78.4326296        0.999062569        -3.03126735     0.000168839483         75.3101996       0.0422562273        -93.3962662

         180000000       0.795467322        -143.891955     0.000304001387         95.6996539        0.605755277        -53.6967021       0.0003054774        -78.5415877
                   0.000304001387         95.6996539       0.0447466801        -92.7022878     0.000175116441        -110.375897        0.998953254        -3.20934023
                      0.605755277        -53.6967021     0.000175116441        -110.375897        0.795433446        -143.485582     0.000175966681         75.3828618
                     0.0003054774        -78.5415877        0.998953254        -3.20934023     0.000175966681         75.3828618       0.0447385708         -93.600977

         190000000       0.810769146        -145.430512     0.000323424129          95.266398        0.585107637        -55.2240757     0.000325173317        -78.6570793
                   0.000323424129          95.266398       0.0472289418        -92.8571171     0.000182006371        -110.571921        0.998837822        -3.38738179
                      0.585107637        -55.2240757     0.000182006371        -110.571921        0.810733978         -145.00156     0.000182990724          75.504602
                   0.000325173317        -78.6570793        0.998837822        -3.38738179     0.000182990724          75.504602       0.0472201731        -93.8055062

         200000000       0.824556473         -146.86977     0.000342874175         94.8307298        0.565503566         -56.652171     0.000344928324        -78.7753327
                   0.000342874175         94.8307298       0.0497104321        -93.0117864     0.000188803259        -110.726035        0.998716277         -3.5653905
                      0.565503566         -56.652171     0.000188803259        -110.726035        0.824520069        -146.418243     0.000189934374         75.6679029
                   0.000344928324        -78.7753327        0.998716277         -3.5653905     0.000189934374         75.6679029       0.0497009874         -94.009871

         210000000       0.837001653        -148.217949     0.000362339205         94.3954869        0.546906069        -57.9892059     0.000364731778         -78.893528
                   0.000362339205         94.3954869       0.0521911045        -93.1663096     0.000195526034        -110.844869         0.99858862         -3.7433648
                      0.546906069        -57.9892059     0.000195526034        -110.844869        0.836964065        -147.743852     0.000196817117         75.8661165
                   0.000364731778         -78.893528         0.99858862         -3.7433648     0.000196817117         75.8661165       0.0521809678        -94.2140858

         220000000       0.848256724         -149.48259     0.000381809653         93.9627651        0.529272273        -59.2427205     0.000384575774         -79.009587
                   0.000381809653         93.9627651       0.0546709126        -93.3206981     0.000202190724        -110.934242        0.998454858        -3.92130312
                      0.529272273        -59.2427205     0.000202190724        -110.934242        0.848217999        -148.985926     0.000203655548         76.0934062
                   0.000384575774         -79.009587        0.998454858        -3.92130312     0.000203655548         76.0934062       0.0546600683        -94.4181624

         230000000       0.858455497        -150.670586     0.000401278161         93.5340857        0.512555938        -60.4196076     0.000404454603        -79.1220061
                   0.000401278161         93.5340857       0.0571498106        -93.4749616     0.000208810827        -110.999229        0.998314993        -4.09920389
                      0.512555938        -60.4196076     0.000208810827        -110.999229        0.858415678        -150.151361     0.000210463734         76.3446791
                   0.000404454603        -79.1220061        0.998314993        -4.09920389     0.000210463734         76.3446791       0.0571382433        -94.6221105

         240000000       0.867715576        -151.788223     0.000420739131         93.1105265        0.496709313        -61.5261508     0.000424364311        -79.2297246
                   0.000420739131         93.1105265       0.0596277526        -93.6291078     0.000215397652        -111.044234        0.998169032        -4.27706551
                      0.496709313        -61.5261508     0.000215397652        -111.044234        0.867674706        -151.246441     0.000217253565         76.6155146
                   0.000424364311        -79.2297246        0.998169032        -4.27706551     0.000217253565         76.6155146       0.0596154472        -94.8259384

         250000000       0.876140265        -152.841219     0.000440188363         92.6928255        0.481684476        -62.5680685      0.00044430233        -79.3320217
                   0.000440188363         92.6928255       0.0621046928        -93.7831435     0.000221960635         -111.07306         0.99801698        -4.45488639
                      0.481684476        -62.5680685     0.000221960635         -111.07306        0.876098379        -152.276885     0.000224035062         76.9020924
                    0.00044430233        -79.3320217         0.99801698        -4.45488639     0.000224035062         76.9020924       0.0620916347        -95.0296528

         260000000       0.883820296        -153.834772     0.000459622767         92.2814611        0.467434279        -63.5505586     0.000464267192        -79.4284361
                   0.000459622767         92.2814611       0.0645805859         -93.937074     0.000228507617        -111.088978        0.997858845        -4.63266494
                      0.467434279        -63.5505586     0.000228507617        -111.088978        0.883777432        -153.247891     0.000230816655         77.2011247
                   0.000464267192        -79.4284361        0.997858845        -4.63266494     0.000230816655         77.2011247       0.0645667607        -95.2332594

         270000000       0.890835403        -154.773606     0.000479040119         91.8767149        0.453912998         -64.478343      0.00048425829        -79.5187032
                   0.000479040119         91.8767149       0.0670553865        -94.0909039     0.000235045084         -111.09479        0.997694632        -4.81039954
                      0.453912998         -64.478343     0.000235045084         -111.09479        0.890791592        -154.164184     0.000237605424         77.5097917
                    0.00048425829        -79.5187032        0.997694632        -4.81039954     0.000237605424         77.5097917       0.0670407801        -95.4367628

         280000000       0.897255702         -155.66201      0.00049843888         91.4787198        0.441076753        -65.3557109     0.000504275691        -79.6027068
                    0.00049843888         91.4787198       0.0695290494        -94.2446368     0.000241578381         -111.09289        0.997524349        -4.98808859
                      0.441076753        -65.3557109     0.000241578381         -111.09289        0.897210974        -155.030051     0.000244407309         77.8256835
                   0.000504275691        -79.6027068        0.997524349        -4.98808859     0.000244407309         77.8256835       0.0695136479         -95.640167

         290000000       0.903142924         -156.50388     0.000517818045         91.0874978         0.42888377        -66.1865588      0.00052431999        -79.6804413
                   0.000517818045         91.0874978       0.0720015296        -94.3982758     0.000248111889        -111.085314        0.997348005        -5.16573049
                       0.42888377        -66.1865588     0.000248111889        -111.085314        0.903097307         -155.84939     0.000251227288         78.1467469
                    0.00052431999        -79.6804413        0.997348005        -5.16573049     0.000251227288         78.1467469       0.0719853194        -95.8434752

         300000000       0.908551483        -157.302758      0.00053717702         90.7029891        0.417294515        -66.9744279     0.000544392183        -79.7519831
                    0.00053717702         90.7029891       0.0744727822        -94.5518234     0.000254649182        -111.073789        0.997165606        -5.34332361
                      0.417294515        -66.9744279     0.000254649182        -111.073789        0.908505004        -156.625743     0.000258069536         78.4712386
                   0.000544392183        -79.7519831        0.997165606        -5.34332361     0.000258069536         78.4712386         0.07445575        -96.0466901

         310000000       0.913529417        -158.061866     0.000556515533         90.3250743        0.406271752        -67.7225392     0.000564493581         -79.817468
                   0.000556515533         90.3250743       0.0769427623        -94.7052816     0.000261193159        -111.059775        0.996977161        -5.52086634
                      0.406271752        -67.7225392     0.000261193159        -111.059775          0.9134821        -157.362331      0.00026493755          78.797683
                   0.000564493581         -79.817468        0.996977161        -5.52086634      0.00026493755          78.797683       0.0769248952        -96.2498136

         320000000         0.9181192        -158.784135     0.000575833555         89.9535914        0.395780523        -68.4338241     0.000584625732        -79.8770737
                   0.000575833555         89.9535914       0.0794114255         -94.858652     0.000267746151        -111.044499        0.996782681        -5.69835707
                      0.395780523        -68.4338241     0.000267746151        -111.044499        0.918071067        -158.062087     0.000271834262         79.1248356
                   0.000584625732        -79.8770737        0.996782681        -5.69835707     0.000271834262         79.1248356       0.0793927105        -96.4528475

         330000000       0.922358449        -159.472236     0.000595131243         89.5883493        0.385788102        -69.1109535     0.000604790358        -79.9310074
                   0.000595131243         89.5883493       0.0818787273        -95.0119358     0.000274310021        -111.028992        0.996582172        -5.87579417
                      0.385788102        -69.1109535     0.000274310021        -111.028992        0.922309521         -158.72768     0.000278762136         79.4516509
                   0.000604790358        -79.9310074        0.996582172        -5.87579417     0.000278762136         79.4516509       0.0818591518        -96.6557933

