! Created Thu Dec 10 20:46:29 2020
# hz S ma R 50
! 6 Port Network Data from SP1.SP block
! freq  magS11  angS11  magS12  angS12  magS13  angS13  magS14  angS14  
!       magS15  angS15  magS16  angS16  
!       magS21  angS21  magS22  angS22  
!       magS23  angS23  magS24  angS24  magS25  angS25  magS26  angS26  
!       magS31  angS31  magS32  angS32  magS33  angS33  magS34  angS34  
!       magS35  angS35  magS36  angS36  
!       magS41  angS41  magS42  angS42  
!       magS43  angS43  magS44  angS44  magS45  angS45  magS46  angS46  
!       magS51  angS51  magS52  angS52  magS53  angS53  magS54  angS54  
!       magS55  angS55  magS56  angS56  
!       magS61  angS61  magS62  angS62  
!       magS63  angS63  magS64  angS64  magS65  angS65  magS66  angS66  
!     
                 0    0.000184950894                  0     5.80046605e-22                180                  0                  0        0.999815048                  0
                   5.80046611e-22                  0                  0                  0
                   5.80046605e-22                180     0.000323728707                  0                  0                  0     5.80046664e-22                  0
                      0.999676271                  0                  0                  0
                                0                  0                  0                  0     2.16988357e-07                  0                  0                  0
                                0                  0        0.999999783                  0
                      0.999815048                  0     5.80046664e-22                  0                  0                  0     0.000184950895                  0
                   5.80046672e-22                180                  0                  0
                   5.80046611e-22                  0        0.999676271                  0                  0                  0     5.80046672e-22                180
                   0.000323728707                  0                  0                  0
                                0                  0                  0                  0        0.999999783                  0                  0                  0
                                0                  0     2.16988357e-07                  0

            100000    0.000180079261        -2.11200077     4.22266285e-08         89.9992393     3.14730867e-07         89.9992471        0.999820047    -0.000688653215
                   5.95426567e-08         89.9992179     3.14731007e-07          89.999253
                   4.22266285e-08         89.9992393     0.000318760559        -0.70959925     9.30871062e-07         89.9993062     5.95285307e-08         89.9991502
                      0.999681268    -0.000620664063     9.30871477e-07          89.999312
                   3.14730867e-07         89.9992471     9.30871062e-07         89.9993062     1.21538858e-06        -79.4141083     3.14844162e-07         89.9995517
                   9.31464651e-07         89.9997015        0.999999777    -7.43245213e-05
                      0.999820047    -0.000688653215     5.95285307e-08         89.9991502     3.14844162e-07         89.9995517     0.000180079931        -2.11727466
                    4.2277389e-08         90.0000358     3.14844302e-07         89.9995576
                   5.95426567e-08         89.9992179        0.999681268    -0.000620664063     9.31464651e-07         89.9997015      4.2277389e-08         90.0000358
                   0.000318760217       -0.705964389     9.31465067e-07         89.9997074
                   3.14731007e-07          89.999253     9.30871477e-07          89.999312        0.999999777    -7.43245213e-05     3.14844302e-07         89.9995576
                   9.31465067e-07         89.9997074     1.21538972e-06        -79.4141061

           1000000    0.000191821898        -20.2446273     4.22267806e-07          89.992378     3.14730841e-06         89.9924709        0.999820017     -0.00688675536
                   5.95425012e-07         89.9921874     3.14731014e-06         89.9925297
                   4.22267806e-07          89.992378     0.000321179182        -7.06285295        9.30871e-06         89.9930611     5.95283753e-07         89.9915115
                      0.999681252     -0.00620715382     9.30871509e-06         89.9931199
                   3.14730841e-06         89.9924709        9.30871e-06         89.9930611     1.19501565e-05        -88.6899642     3.14844151e-06         89.9955165
                   9.31464609e-06         89.9970146        0.999999726    -0.000743245247
                      0.999820017     -0.00688675536     5.95283753e-07         89.9915115     3.14844151e-06         89.9955165     0.000191878367        -20.2912599
                   4.22775458e-07         90.0003417     3.14844323e-06         89.9955752
                   5.95425012e-07         89.9921874        0.999681252     -0.00620715382     9.31464609e-06         89.9970146     4.22775458e-07         90.0003417
                   0.000321152884        -7.02704751     9.31465119e-06         89.9970733
                   3.14731014e-06         89.9925297     9.30871509e-06         89.9931199        0.999999726    -0.000743245247     3.14844323e-06         89.9955752
                   9.31465119e-06         89.9970733     1.19501707e-05        -88.6898432

          10000000    0.000688373621        -74.8035917     4.22374074e-06         89.9142045     3.14730244e-05         89.9247568        0.999818422      -0.0688199296
                   5.95317093e-06         89.9287514     3.14730603e-05         89.9253441
                   4.22374074e-06         89.9142045     0.000507415545        -51.0815507     9.30870129e-05         89.9306207     5.95176142e-06         89.9219844
                      0.999680619      -0.0620621751     9.30871189e-05          89.931208
                   3.14730244e-05         89.9247568     9.30870129e-05         89.9306207     0.000119471484        -89.7396414     3.14844236e-05         89.9551342
                   9.31464285e-05         89.9701528        0.999999414     -0.00743245416
                      0.999818422      -0.0688199296     5.95176142e-06         89.9219844     3.14844236e-05         89.9551342     0.000689946335        -74.8486824
                   4.22883544e-06         89.9936877     3.14844594e-05         89.9557215
                   5.95317093e-06         89.9287514        0.999680619      -0.0620621751     9.31464285e-05         89.9701528     4.22883543e-06         89.9936877
                   0.000505749706        -50.9503854     9.31465345e-05         89.9707401
                   3.14730603e-05         89.9253441     9.30871189e-05          89.931208        0.999999414     -0.00743245416     3.14844594e-05         89.9557215
                   9.31465345e-05         89.9707401      0.00011947178        -89.7384171

         100000000     0.00666350297        -88.9139244     4.22588393e-05         88.9290956     0.000314715295         89.2488663        0.999773127       -0.686896762
                   5.95056826e-05         89.4410621     0.000314716353         89.2547393
                   4.22588393e-05         88.9290956      0.00397078086        -85.4150125     0.000930825173         89.3069561     5.94897101e-05         89.3729057
                      0.999634153       -0.619871953     0.000930828303         89.3128291
                   0.000314715295         89.2488663     0.000930825173         89.3069561      0.00119469175        -90.0462948      0.00031483004         89.5502413
                    0.00093145502         89.7009553        0.999996641      -0.0743242904
                      0.999773127       -0.686896762     5.94897101e-05         89.3729057      0.00031483004         89.5502413      0.00667956629        -89.0119689
                   4.23112187e-05         89.7189561     0.000314831098         89.5561143
                   5.95056826e-05         89.4410621        0.999634153       -0.619871953      0.00093145502         89.7009553     4.23112187e-05         89.7189561
                    0.00394924222        -85.6026692     0.000931458152         89.7068283
                   0.000314716353         89.2547393     0.000930828303         89.3128291        0.999996641      -0.0743242904     0.000314831098         89.5561143
                   0.000931458152         89.7068283      0.00119470046        -90.0340454

         200000000      0.0133462046        -90.2635901     8.45088502e-05         87.8514971     0.000629358004         88.4992772        0.999661827        -1.37224881
                   0.000118998059         88.8896207     0.000629360993         88.5110232
                   8.45088502e-05         87.8514971      0.00796670921          -87.98205       0.0018614472         88.6166598     0.000118956741          88.755491
                      0.999527893        -1.23699635      0.00186145604         88.6284057
                   0.000629358004         88.4992772       0.0018614472         88.6166598      0.00238934189        -90.1968998     0.000629561201         89.0992166
                    0.00186279917         89.3993279        0.999990916       -0.148646683
                      0.999661827        -1.37224881     0.000118956741          88.755491     0.000629561201         89.0992166       0.0133773082        -90.4525243
                   8.46100575e-05         89.4213522      0.00062956419         89.1109626
                   0.000118998059         88.8896207        0.999527893        -1.23699635      0.00186279917         89.3993279     8.46100575e-05         89.4213522
                    0.00792293525         -88.391168      0.00186280802         89.4110739
                   0.000629360993         88.5110232      0.00186145604         88.6284057        0.999990916       -0.148646683      0.00062956419         89.1109626
                    0.00186280802         89.4110739       0.0023893664        -90.1724005

         300000000      0.0200477311        -91.1461695     0.000126747612          86.779473     0.000943881826         87.7510178         0.99950353         -2.0562708
                   0.000178465815         88.3365602     0.000943887328         87.7686367
                   0.000126747612          86.779473       0.0120041745        -89.2032832      0.00279180836         87.9287272     0.000178387943          88.138407
                      0.999402236        -1.85175683      0.00279182464         87.9463462
                   0.000943881826         87.7510178      0.00279180836         87.9287272      0.00358391935        -90.3341291      0.00094407059         88.6472617
                    0.00279378129         89.0955433        0.999981991       -0.222965131
                       0.99950353         -2.0562708     0.000178387943          88.138407      0.00094407059         88.6472617        0.020092391         -91.426402
                   0.000126866695         89.1211377     0.000944076094         88.6648806
                   0.000178465815         88.3365602        0.999402236        -1.85175683      0.00279378129         89.0955433     0.000126866695         89.1211377
                     0.0119380808        -89.8218956      0.00279379757         89.1131622
                   0.000943887328         87.7686367      0.00279182464         87.9463462        0.999981991       -0.222965131     0.000944076094         88.6648806
                    0.00279379757         89.1131622      0.00358396421        -90.2973797

         400000000       0.026755943        -91.9223856     0.000168976781         85.7098342      0.00125824762         87.0035636        0.999303991        -2.73948618
                   0.000237895963         87.7832945      0.00125825612         87.0270555
                   0.000168976781         85.7098342       0.0160594541          -90.12174      0.00372189077         87.2420394     0.000237770579         87.5221004
                      0.999267952        -2.46527254      0.00372191592         87.2655313
                    0.00125824762         87.0035636      0.00372189077         87.2420394       0.0047783904        -90.4670675      0.00125822883         88.1950779
                    0.00372411186          88.790838        0.999969794       -0.297277609
                      0.999303991        -2.73948618     0.000237770579         87.5221004      0.00125822883         88.1950779       0.0268125679        -92.2942036
                   0.000169048948          88.819449      0.00125823733         88.2185697
                   0.000237895963         87.7832945        0.999267952        -2.46527254      0.00372411186          88.790838     0.000169048948          88.819449
                     0.0159715275         -90.945322      0.00372413702         88.8143299
                    0.00125825612         87.0270555      0.00372191592         87.2655313        0.999969794       -0.297277609      0.00125823733         88.2185697
                    0.00372413702         88.8143299      0.00477845921        -90.4180681

         500000000      0.0334637173        -92.6534233     0.000211196706         84.6414462      0.00157241303          86.256653        0.999062338        -3.42215576
                    0.00029727585         87.2302258      0.00157242496         86.2860178
                   0.000211196706         84.6414462       0.0201203236        -90.9124792      0.00465165744         86.5559944     0.000297091179         86.9064489
                      0.999123103        -3.07814529      0.00465169273         86.5853592
                    0.00157241303          86.256653      0.00465165744         86.5559944      0.00597272116        -90.5979621      0.00157191026         87.7431089
                    0.00465352223          88.485929          0.9999543       -0.371582106
                      0.999062338        -3.42215576     0.000297091179         86.9064489      0.00157191026         87.7431089       0.0335305223        -93.1174602
                   0.000211126662         88.5175975      0.00157192219         87.7724738
                    0.00029727585         87.2302258        0.999123103        -3.07814529      0.00465352223          88.485929     0.000211126662         88.5175975
                     0.0200115153        -91.9383294      0.00465355754         88.5152939
                    0.00157242496         86.2860178      0.00465169273         86.5853592          0.9999543       -0.371582106      0.00157192219         87.7724738
                    0.00465355754         88.5152939      0.00597281698        -90.5367127

         600000000      0.0401674017        -93.3588646     0.000253406875         83.5739147      0.00188633336         85.5102187        0.998777034        -4.10434622
                   0.000356592949          86.677558      0.00188634912         85.5454564
                   0.000253406875         83.5739147       0.0241814042        -91.6320335      0.00558105737         85.8703666     0.000356335622           86.29145
                      0.998964547        -3.69060075        0.005581104         85.9056044
                    0.00188633336         85.5102187      0.00558105737         85.8703666      0.00716687785        -90.7276662      0.00188499199         87.2916053
                    0.00558175907         88.1811518          0.9999355       -0.445876628
                      0.998777034        -4.10434622     0.000356335622           86.29145      0.00188499199         87.2916053       0.0402423303        -93.9160306
                   0.000253071279         88.2162515      0.00188500774         87.3268431
                   0.000356592949          86.677558        0.998964547        -3.69060075      0.00558175907         88.1811518     0.000253071279         88.2162515
                     0.0240530745        -92.8579357      0.00558180571         88.2163895
                    0.00188634912         85.5454564        0.005581104         85.9056044          0.9999355       -0.445876628      0.00188500774         87.3268431
                    0.00558180571         88.2163895      0.00716700333        -90.6541665

         700000000      0.0468641608        -94.0475174     0.000295606883          82.507133      0.00219996462         84.7642816        0.998447757        -4.78603591
                   0.000415835168         86.1254704      0.00219998459         84.8053923
                   0.000295606883          82.507133       0.0282399103        -92.3062009      0.00651003912         85.1850914     0.000415489972         85.6771823
                      0.998790866        -4.30270341      0.00651009821         85.2262022
                    0.00219996462         84.7642816      0.00651003912         85.1850914      0.00836082689        -90.8565785      0.00219735326         86.8407413
                    0.00650857708         87.8767205        0.999913394         -0.5201592
                      0.998447757        -4.78603591     0.000415489972         85.6771823      0.00219735326         86.8407413       0.0469453816        -94.6986388
                   0.000294855183           87.91584       0.0021973732          86.881852
                   0.000415835168         86.1254704        0.998790866        -4.30270341      0.00650857708         87.8767205     0.000294855183           87.91584
                     0.0280933094        -93.7304102      0.00650863616         87.9178313
                    0.00219998459         84.8053923      0.00651009821         85.2262022        0.999913394         -0.5201592       0.0021973732          86.881852
                    0.00650863616         87.9178313      0.00836098437        -90.7708287

         800000000      0.0535520563         -94.724506     0.000337796005         81.4410692      0.00251326188         84.0188809        0.998073963        -5.46718509
                   0.000474990273         85.5740958      0.00251328642         84.0658645
                   0.000337796005         81.4410692        0.032293985        -92.9501889      0.00743854723         84.5001465     0.000474540022         85.0637373
                      0.998600815        -4.91447573      0.00743861985         84.5471301
                    0.00251326188         84.0188809      0.00743854723         84.5001465      0.00955453497        -90.9849096      0.00250887354         86.3906639
                    0.00743373282          87.572773        0.999887984       -0.594427869
                      0.998073963        -5.46718509     0.000474540022         85.0637373      0.00250887354         86.3906639       0.0536375588        -95.4705647
                   0.000336450903         87.6166594      0.00250889803         86.4376475
                   0.000474990273         85.5740958        0.998600815        -4.91447573      0.00743373282          87.572773     0.000336450903         87.6166594
                     0.0321306561        -94.5709623      0.00743380539         87.6197566
                    0.00251328642         84.0658645      0.00743861985         84.5471301        0.999887984       -0.594427869      0.00250889803         86.4376475
                    0.00743380539         87.6197566      0.00955472655        -90.8869096

         900000000      0.0602293081        -95.3929448     0.000379973288         80.3757239      0.00282617964         83.2740642        0.997655148        -6.14774547
                   0.000534045969         85.0235574      0.00282620909         83.3269207
                   0.000379973288         80.3757239       0.0363420755        -93.5734256      0.00836652365         83.8155256     0.000533471409         84.4512129
                      0.998393392        -5.52592378      0.00836661085         83.8683822
