!AWR Design Environment (4240) Wed Oct 14 10:04:41 2009
!
!freq-unit  param-type  data-format  keyword  impedance-ohms
# GHz           S          MA           R         50
!-----------------------------------------------------------------------------
 0.000        0.33333     -180          0.66667     -0.0   0.66667     -0.00  
              0.66667     -0.00  		0.33333     -180    0.66667     -0.00  
              0.66667     -0.00  		0.66667     -0.00   0.33333     -180 



 0.001        0.33333     -180          0.66667     -0.00046496   0.66667     -0.00046407  
              0.66667     -0.00046496   0.33333     -180          0.66667     -0.00047196  
              0.66667     -0.00046407   0.66667     -0.00047196   0.33333     -180         

 0.005        0.33333     -180          0.66667     -0.0023253    0.66667     -0.0023208   
              0.66667     -0.0023253    0.33333     -180          0.66667     -0.0023622   
              0.66667     -0.0023208    0.66667     -0.0023622    0.33333     -180         

 0.2          0.33334     -179.92       0.66666     -0.093011     0.66666     -0.092833    
              0.66666     -0.093011     0.33334     -179.93       0.66666     -0.094492    
              0.66666     -0.092833     0.66666     -0.094492     0.33334     -179.93      

 0.4          0.33334     -179.85       0.66666     -0.18602      0.66666     -0.18567     
              0.66666     -0.18602      0.33334     -179.85       0.66666     -0.18898     
              0.66666     -0.18567      0.66666     -0.18898      0.33334     -179.85      

 0.6          0.33335     -179.77       0.66666     -0.27903      0.66666     -0.2785      
              0.66666     -0.27903      0.33335     -179.78       0.66666     -0.28348     
              0.66666     -0.2785       0.66666     -0.28348      0.33335     -179.78      

 0.8          0.33336     -179.69       0.66665     -0.37204      0.66665     -0.37133     
              0.66665     -0.37204      0.33336     -179.7        0.66665     -0.37797     
              0.66665     -0.37133      0.66665     -0.37797      0.33336     -179.7       

 1            0.33338     -179.61       0.66665     -0.46505      0.66665     -0.46416     
              0.66665     -0.46505      0.33337     -179.63       0.66665     -0.47246     
              0.66665     -0.46416      0.66665     -0.47246      0.33338     -179.63      

 1.2          0.3334      -179.54       0.66664     -0.55805      0.66664     -0.55698     
              0.66664     -0.55805      0.33339     -179.56       0.66664     -0.56695     
              0.66664     -0.55698      0.66664     -0.56695      0.33339     -179.55      

 1.4          0.33342     -179.46       0.66664     -0.65106      0.66663     -0.64981     
              0.66664     -0.65106      0.33341     -179.48       0.66664     -0.66144     
              0.66663     -0.64981      0.66664     -0.66144      0.33341     -179.48      

 1.6          0.33344     -179.38       0.66663     -0.74406      0.66663     -0.74263     
              0.66663     -0.74406      0.33343     -179.41       0.66663     -0.75592     
              0.66663     -0.74263      0.66663     -0.75592      0.33343     -179.41      

 1.8          0.33346     -179.3        0.66662     -0.83706      0.66662     -0.83545     
              0.66662     -0.83706      0.33345     -179.33       0.66662     -0.85041     
              0.66662     -0.83545      0.66662     -0.85041      0.33345     -179.33      

 2            0.33349     -179.23       0.66661     -0.93005      0.66661     -0.92827     
              0.66661     -0.93005      0.33348     -179.26       0.66662     -0.9449      
              0.66661     -0.92827      0.66662     -0.9449       0.33348     -179.26      

 2.2          0.33352     -179.15       0.6666      -1.023        0.6666      -1.0211      
              0.6666      -1.023        0.33351     -179.19       0.66661     -1.0394      
              0.6666      -1.0211       0.66661     -1.0394       0.33351     -179.18      

 2.4          0.33356     -179.07       0.66659     -1.116        0.66659     -1.1139      
              0.66659     -1.116        0.33354     -179.11       0.6666      -1.1339      
              0.66659     -1.1139       0.6666      -1.1339       0.33354     -179.11      

 2.6          0.33359     -179          0.66658     -1.209        0.66658     -1.2067      
              0.66658     -1.209        0.33357     -179.04       0.66659     -1.2284      
              0.66658     -1.2067       0.66659     -1.2284       0.33357     -179.04      

 2.8          0.33363     -178.92       0.66657     -1.302        0.66657     -1.2995      
              0.66657     -1.302        0.3336      -178.97       0.66658     -1.3228      
              0.66657     -1.2995       0.66658     -1.3228       0.33361     -178.96      

 3            0.33367     -178.84       0.66656     -1.395        0.66656     -1.3923      
              0.66656     -1.395        0.33364     -178.89       0.66657     -1.4173      
              0.66656     -1.3923       0.66657     -1.4173       0.33365     -178.89      

 3.2          0.33372     -178.77       0.66655     -1.4879       0.66654     -1.4851      
              0.66655     -1.4879       0.33368     -178.82       0.66656     -1.5118      
              0.66654     -1.4851       0.66656     -1.5118       0.33369     -178.81      

 3.4          0.33376     -178.69       0.66653     -1.5809       0.66653     -1.5779      
              0.66653     -1.5809       0.33372     -178.75       0.66655     -1.6063      
              0.66653     -1.5779       0.66655     -1.6063       0.33373     -178.74      

 3.6          0.33381     -178.61       0.66652     -1.6739       0.66652     -1.6707      
              0.66652     -1.6739       0.33377     -178.67       0.66654     -1.7008      
              0.66652     -1.6707       0.66654     -1.7008       0.33378     -178.67      

 3.8          0.33387     -178.54       0.6665      -1.7668       0.6665      -1.7634      
              0.6665      -1.7668       0.33382     -178.6        0.66653     -1.7952      
              0.6665      -1.7634       0.66653     -1.7952       0.33382     -178.59      

 4            0.33392     -178.46       0.66649     -1.8598       0.66649     -1.8562      
              0.66649     -1.8598       0.33387     -178.53       0.66651     -1.8897      
              0.66649     -1.8562       0.66651     -1.8897       0.33388     -178.52      

 4.2          0.33398     -178.38       0.66647     -1.9527       0.66647     -1.949       
              0.66647     -1.9527       0.33392     -178.45       0.6665      -1.9842      
              0.66647     -1.949        0.6665      -1.9842       0.33393     -178.45      

 4.4          0.33404     -178.31       0.66646     -2.0457       0.66645     -2.0417      
              0.66646     -2.0457       0.33397     -178.38       0.66649     -2.0787      
              0.66645     -2.0417       0.66649     -2.0787       0.33398     -178.37      

 4.6          0.33411     -178.23       0.66644     -2.1386       0.66643     -2.1345      
              0.66644     -2.1386       0.33403     -178.31       0.66647     -2.1731      
              0.66643     -2.1345       0.66647     -2.1731       0.33404     -178.3       

 4.8          0.33417     -178.15       0.66642     -2.2315       0.66642     -2.2272      
              0.66642     -2.2315       0.33409     -178.23       0.66646     -2.2676      
              0.66642     -2.2272       0.66646     -2.2676       0.3341      -178.23      

 5            0.33424     -178.08       0.6664      -2.3244       0.6664      -2.32        
              0.6664      -2.3244       0.33415     -178.16       0.66644     -2.3621      
              0.6664      -2.32         0.66644     -2.3621       0.33417     -178.15      

 5.5          0.33442     -177.89       0.66635     -2.5567       0.66635     -2.5518      
              0.66635     -2.5567       0.33432     -177.98       0.6664      -2.5983      
              0.66635     -2.5518       0.6664      -2.5983       0.33433     -177.97      

 6            0.33462     -177.7        0.6663      -2.7889       0.66629     -2.7835      
              0.6663      -2.7889       0.3345      -177.8        0.66635     -2.8344      
              0.66629     -2.7835       0.66635     -2.8344       0.33452     -177.79      

 6.5          0.33484     -177.51       0.66624     -3.0211       0.66623     -3.0152      
              0.66624     -3.0211       0.33469     -177.62       0.66631     -3.0706      
              0.66623     -3.0152       0.66631     -3.0706       0.33472     -177.61      

 7            0.33508     -177.32       0.66618     -3.2532       0.66617     -3.2469      
              0.66618     -3.2532       0.3349      -177.44       0.66625     -3.3067      
              0.66617     -3.2469       0.66625     -3.3067       0.33493     -177.43      

 7.5          0.33533     -177.14       0.66611     -3.4852       0.6661      -3.4785      
              0.66611     -3.4852       0.33513     -177.26       0.6662      -3.5429      
              0.6661      -3.4785       0.6662      -3.5429       0.33516     -177.25      

 8            0.33559     -176.95       0.66604     -3.7172       0.66603     -3.71        
              0.66604     -3.7172       0.33537     -177.08       0.66614     -3.779       
              0.66603     -3.71         0.66614     -3.779        0.3354      -177.07      

 8.5          0.33587     -176.77       0.66597     -3.9491       0.66595     -3.9414      
              0.66597     -3.9491       0.33562     -176.91       0.66608     -4.0151      
              0.66595     -3.9414       0.66608     -4.0151       0.33566     -176.89      

 9            0.33617     -176.58       0.66589     -4.1809       0.66587     -4.1728      
              0.66589     -4.1809       0.33589     -176.73       0.66601     -4.2512      
              0.66587     -4.1728       0.66601     -4.2512       0.33593     -176.72      

 9.5          0.33649     -176.4        0.66581     -4.4126       0.66579     -4.404       
              0.66581     -4.4126       0.33618     -176.56       0.66594     -4.4873      
              0.66579     -4.404        0.66594     -4.4873       0.33622     -176.54      

 10           0.33682     -176.22       0.66572     -4.6443       0.6657      -4.6352      
              0.66572     -4.6443       0.33647     -176.38       0.66587     -4.7233      
              0.6657      -4.6352       0.66587     -4.7233       0.33652     -176.37      

 10.5         0.33717     -176.04       0.66563     -4.8758       0.6656      -4.8663      
              0.66563     -4.8758       0.33678     -176.21       0.6658      -4.9594      
              0.6656      -4.8663       0.6658      -4.9594       0.33684     -176.2       

 11           0.33753     -175.86       0.66554     -5.1073       0.66551     -5.0973      
              0.66554     -5.1073       0.33711     -176.04       0.66572     -5.1955      
              0.66551     -5.0973       0.66572     -5.1955       0.33717     -176.02      

 11.5         0.33791     -175.68       0.66544     -5.3387       0.66541     -5.3282      
              0.66544     -5.3387       0.33745     -175.87       0.66564     -5.4315      
              0.66541     -5.3282       0.66564     -5.4315       0.33751     -175.85      

 12           0.3383      -175.5        0.66534     -5.5699       0.6653      -5.559       
              0.66534     -5.5699       0.3378      -175.7        0.66555     -5.6675      
              0.6653      -5.559        0.66555     -5.6675       0.33787     -175.69      

 12.5         0.33871     -175.33       0.66523     -5.8011       0.66519     -5.7897      
              0.66523     -5.8011       0.33817     -175.54       0.66547     -5.9035      
              0.66519     -5.7897       0.66547     -5.9035       0.33825     -175.52      

 13           0.33913     -175.15       0.66512     -6.0322       0.66508     -6.0203      
              0.66512     -6.0322       0.33855     -175.37       0.66537     -6.1395      
              0.66508     -6.0203       0.66537     -6.1395       0.33863     -175.35      

 13.5         0.33957     -174.98       0.66501     -6.2631       0.66496     -6.2507      
              0.66501     -6.2631       0.33894     -175.21       0.66528     -6.3755      
              0.66496     -6.2507       0.66528     -6.3755       0.33903     -175.19      

 14           0.34003     -174.81       0.66489     -6.4939       0.66484     -6.481       
              0.66489     -6.4939       0.33935     -175.05       0.66518     -6.6114      
              0.66484     -6.481        0.66518     -6.6114       0.33945     -175.03      

 14.5         0.34049     -174.64       0.66477     -6.7246       0.66471     -6.7112      
              0.66477     -6.7246       0.33977     -174.89       0.66508     -6.8474      
              0.66471     -6.7112       0.66508     -6.8474       0.33987     -174.86      

 15           0.34098     -174.47       0.66464     -6.9552       0.66458     -6.9413      
              0.66464     -6.9552       0.3402      -174.73       0.66498     -7.0833      
              0.66458     -6.9413       0.66498     -7.0833       0.34031     -174.7       

 15.5         0.34147     -174.31       0.66451     -7.1856       0.66445     -7.1713      
              0.66451     -7.1856       0.34064     -174.57       0.66487     -7.3192      
              0.66445     -7.1713       0.66487     -7.3192       0.34076     -174.55      

 16           0.34198     -174.14       0.66438     -7.4159       0.66431     -7.4011      
              0.66438     -7.4159       0.3411      -174.42       0.66476     -7.5551      
              0.66431     -7.4011       0.66476     -7.5551       0.34123     -174.39      

 16.5         0.34251     -173.98       0.66424     -7.646        0.66417     -7.6307      
              0.66424     -7.646        0.34157     -174.26       0.66465     -7.791       
              0.66417     -7.6307       0.66465     -7.791        0.34171     -174.24      

 17           0.34305     -173.82       0.6641      -7.8761       0.66403     -7.8602      
              0.6641      -7.8761       0.34205     -174.11       0.66454     -8.0269      
              0.66403     -7.8602       0.66454     -8.0269       0.3422      -174.08      

 17.5         0.3436      -173.66       0.66396     -8.1059       0.66388     -8.0896      
              0.66396     -8.1059       0.34255     -173.96       0.66442     -8.2627      
              0.66388     -8.0896       0.66442     -8.2627       0.3427      -173.93      

 18           0.34417     -173.5        0.66381     -8.3356       0.66372     -8.3188      
              0.66381     -8.3356       0.34305     -173.81       0.6643      -8.4985      
              0.66372     -8.3188       0.6643      -8.4985       0.34321     -173.79      

 18.5         0.34474     -173.35       0.66366     -8.5652       0.66357     -8.5478      
              0.66366     -8.5652       0.34357     -173.67       0.66418     -8.7344      
              0.66357     -8.5478       0.66418     -8.7344       0.34374     -173.64      

 19           0.34534     -173.19       0.6635      -8.7946       0.66341     -8.7767      
              0.6635      -8.7946       0.3441      -173.52       0.66405     -8.9702      
              0.66341     -8.7767       0.66405     -8.9702       0.34428     -173.49      

 19.5         0.34594     -173.04       0.66334     -9.0238       0.66324     -9.0054      
              0.66334     -9.0238       0.34464     -173.38       0.66392     -9.206       
              0.66324     -9.0054       0.66392     -9.206        0.34483     -173.35      

 20           0.34656     -172.89       0.66318     -9.2529       0.66308     -9.2339      
              0.66318     -9.2529       0.34519     -173.24       0.66379     -9.4418      
              0.66308     -9.2339       0.66379     -9.4418       0.34539     -173.21      

 20.5         0.34719     -172.74       0.66301     -9.4818       0.6629      -9.4623      
              0.66301     -9.4818       0.34575     -173.1        0.66365     -9.6775      
              0.6629      -9.4623       0.66365     -9.6775       0.34596     -173.07      

 21           0.34783     -172.6        0.66284     -9.7105       0.66273     -9.6904      
              0.66284     -9.7105       0.34632     -172.97       0.66352     -9.9133      
              0.66273     -9.6904       0.66352     -9.9133       0.34654     -172.94      

 21.5         0.34848     -172.45       0.66267     -9.939        0.66255     -9.9184      
              0.66267     -9.939        0.3469      -172.83       0.66338     -10.149      
              0.66255     -9.9184       0.66338     -10.149       0.34713     -172.8       

 22           0.34915     -172.31       0.6625      -10.167       0.66237     -10.146      
              0.6625      -10.167       0.34749     -172.7        0.66324     -10.385      
              0.66237     -10.146       0.66324     -10.385       0.34773     -172.67      

 22.5         0.34982     -172.17       0.66232     -10.395       0.66218     -10.374      
              0.66232     -10.395       0.3481      -172.57       0.66309     -10.621      
              0.66218     -10.374       0.66309     -10.621       0.34835     -172.54      

 23           0.35051     -172.03       0.66213     -10.623       0.66199     -10.601      
              0.66213     -10.623       0.34871     -172.44       0.66294     -10.856      
              0.66199     -10.601       0.66294     -10.856       0.34897     -172.41      

 23.5         0.35121     -171.9        0.66195     -10.851       0.6618      -10.828      
              0.66195     -10.851       0.34933     -172.32       0.66279     -11.092      
              0.6618      -10.828       0.66279     -11.092       0.3496      -172.29      

 24           0.35192     -171.76       0.66176     -11.079       0.66161     -11.055      
              0.66176     -11.079       0.34996     -172.2        0.66264     -11.328      
              0.66161     -11.055       0.66264     -11.328       0.35025     -172.17      

 24.5         0.35264     -171.63       0.66157     -11.306       0.66141     -11.282      
              0.66157     -11.306       0.3506      -172.08       0.66249     -11.563      
              0.66141     -11.282       0.66249     -11.563       0.3509      -172.05      

 25           0.35337     -171.5        0.66137     -11.533       0.66121     -11.509      
              0.66137     -11.533       0.35125     -171.96       0.66233     -11.799      
              0.66121     -11.509       0.66233     -11.799       0.35156     -171.93      

 25.5         0.35411     -171.38       0.66117     -11.76        0.661       -11.735      
              0.66117     -11.76        0.3519      -171.84       0.66217     -12.035      
              0.661       -11.735       0.66217     -12.035       0.35223     -171.81      

 26           0.35486     -171.25       0.66097     -11.987       0.66079     -11.961      
              0.66097     -11.987       0.35257     -171.73       0.66201     -12.27       
              0.66079     -11.961       0.66201     -12.27        0.3529      -171.7       

 26.5         0.35563     -171.13       0.66077     -12.213       0.66058     -12.187      
              0.66077     -12.213       0.35324     -171.62       0.66185     -12.506      
              0.66058     -12.187       0.66185     -12.506       0.35359     -171.59      

 27           0.3564      -171.01       0.66056     -12.44        0.66036     -12.413      
