! AWR Design Environment (9226) Fri Apr 12 11:08:25 2019
! Document = '37400_IMN_OM'
! nPorts: 17, nXvals: 321

# GHz S DB R 50
!Freq DBS11 AngS11 DBS12 AngS12 DBS13 AngS13 DBS14 AngS14 
!	DBS15 AngS15 DBS16 AngS16 DBS17 AngS17 DBS18 AngS18 
!	DBS19 AngS19 DBS1_10 AngS1_10 DBS1_11 AngS1_11 DBS1_12 AngS1_12 
!	DBS1_13 AngS1_13 DBS1_14 AngS1_14 DBS1_15 AngS1_15 DBS1_16 AngS1_16 
!	DBS1_17 AngS1_17 
!	DBS21 AngS21 DBS22 AngS22 DBS23 AngS23 DBS24 AngS24 
!	DBS25 AngS25 DBS26 AngS26 DBS27 AngS27 DBS28 AngS28 
!	DBS29 AngS29 DBS2_10 AngS2_10 DBS2_11 AngS2_11 DBS2_12 AngS2_12 
!	DBS2_13 AngS2_13 DBS2_14 AngS2_14 DBS2_15 AngS2_15 DBS2_16 AngS2_16 
!	DBS2_17 AngS2_17 
!	DBS31 AngS31 DBS32 AngS32 DBS33 AngS33 DBS34 AngS34 
!	DBS35 AngS35 DBS36 AngS36 DBS37 AngS37 DBS38 AngS38 
!	DBS39 AngS39 DBS3_10 AngS3_10 DBS3_11 AngS3_11 DBS3_12 AngS3_12 
!	DBS3_13 AngS3_13 DBS3_14 AngS3_14 DBS3_15 AngS3_15 DBS3_16 AngS3_16 
!	DBS3_17 AngS3_17 
!	DBS41 AngS41 DBS42 AngS42 DBS43 AngS43 DBS44 AngS44 
!	DBS45 AngS45 DBS46 AngS46 DBS47 AngS47 DBS48 AngS48 
!	DBS49 AngS49 DBS4_10 AngS4_10 DBS4_11 AngS4_11 DBS4_12 AngS4_12 
!	DBS4_13 AngS4_13 DBS4_14 AngS4_14 DBS4_15 AngS4_15 DBS4_16 AngS4_16 
!	DBS4_17 AngS4_17 
!	DBS51 AngS51 DBS52 AngS52 DBS53 AngS53 DBS54 AngS54 
!	DBS55 AngS55 DBS56 AngS56 DBS57 AngS57 DBS58 AngS58 
!	DBS59 AngS59 DBS5_10 AngS5_10 DBS5_11 AngS5_11 DBS5_12 AngS5_12 
!	DBS5_13 AngS5_13 DBS5_14 AngS5_14 DBS5_15 AngS5_15 DBS5_16 AngS5_16 
!	DBS5_17 AngS5_17 
!	DBS61 AngS61 DBS62 AngS62 DBS63 AngS63 DBS64 AngS64 
!	DBS65 AngS65 DBS66 AngS66 DBS67 AngS67 DBS68 AngS68 
!	DBS69 AngS69 DBS6_10 AngS6_10 DBS6_11 AngS6_11 DBS6_12 AngS6_12 
!	DBS6_13 AngS6_13 DBS6_14 AngS6_14 DBS6_15 AngS6_15 DBS6_16 AngS6_16 
!	DBS6_17 AngS6_17 
!	DBS71 AngS71 DBS72 AngS72 DBS73 AngS73 DBS74 AngS74 
!	DBS75 AngS75 DBS76 AngS76 DBS77 AngS77 DBS78 AngS78 
!	DBS79 AngS79 DBS7_10 AngS7_10 DBS7_11 AngS7_11 DBS7_12 AngS7_12 
!	DBS7_13 AngS7_13 DBS7_14 AngS7_14 DBS7_15 AngS7_15 DBS7_16 AngS7_16 
!	DBS7_17 AngS7_17 
!	DBS81 AngS81 DBS82 AngS82 DBS83 AngS83 DBS84 AngS84 
!	DBS85 AngS85 DBS86 AngS86 DBS87 AngS87 DBS88 AngS88 
!	DBS89 AngS89 DBS8_10 AngS8_10 DBS8_11 AngS8_11 DBS8_12 AngS8_12 
!	DBS8_13 AngS8_13 DBS8_14 AngS8_14 DBS8_15 AngS8_15 DBS8_16 AngS8_16 
!	DBS8_17 AngS8_17 
!	DBS91 AngS91 DBS92 AngS92 DBS93 AngS93 DBS94 AngS94 
!	DBS95 AngS95 DBS96 AngS96 DBS97 AngS97 DBS98 AngS98 
!	DBS99 AngS99 DBS9_10 AngS9_10 DBS9_11 AngS9_11 DBS9_12 AngS9_12 
!	DBS9_13 AngS9_13 DBS9_14 AngS9_14 DBS9_15 AngS9_15 DBS9_16 AngS9_16 
!	DBS9_17 AngS9_17 
!	DBS10_1 AngS10_1 DBS10_2 AngS10_2 DBS10_3 AngS10_3 DBS10_4 AngS10_4 
!	DBS10_5 AngS10_5 DBS10_6 AngS10_6 DBS10_7 AngS10_7 DBS10_8 AngS10_8 
!	DBS10_9 AngS10_9 DBS10_10 AngS10_10 DBS10_11 AngS10_11 DBS10_12 AngS10_12 
!	DBS10_13 AngS10_13 DBS10_14 AngS10_14 DBS10_15 AngS10_15 DBS10_16 AngS10_16 
!	DBS10_17 AngS10_17 
!	DBS11_1 AngS11_1 DBS11_2 AngS11_2 DBS11_3 AngS11_3 DBS11_4 AngS11_4 
!	DBS11_5 AngS11_5 DBS11_6 AngS11_6 DBS11_7 AngS11_7 DBS11_8 AngS11_8 
!	DBS11_9 AngS11_9 DBS11_10 AngS11_10 DBS11_11 AngS11_11 DBS11_12 AngS11_12 
!	DBS11_13 AngS11_13 DBS11_14 AngS11_14 DBS11_15 AngS11_15 DBS11_16 AngS11_16 
!	DBS11_17 AngS11_17 
!	DBS12_1 AngS12_1 DBS12_2 AngS12_2 DBS12_3 AngS12_3 DBS12_4 AngS12_4 
!	DBS12_5 AngS12_5 DBS12_6 AngS12_6 DBS12_7 AngS12_7 DBS12_8 AngS12_8 
!	DBS12_9 AngS12_9 DBS12_10 AngS12_10 DBS12_11 AngS12_11 DBS12_12 AngS12_12 
!	DBS12_13 AngS12_13 DBS12_14 AngS12_14 DBS12_15 AngS12_15 DBS12_16 AngS12_16 
!	DBS12_17 AngS12_17 
!	DBS13_1 AngS13_1 DBS13_2 AngS13_2 DBS13_3 AngS13_3 DBS13_4 AngS13_4 
!	DBS13_5 AngS13_5 DBS13_6 AngS13_6 DBS13_7 AngS13_7 DBS13_8 AngS13_8 
!	DBS13_9 AngS13_9 DBS13_10 AngS13_10 DBS13_11 AngS13_11 DBS13_12 AngS13_12 
!	DBS13_13 AngS13_13 DBS13_14 AngS13_14 DBS13_15 AngS13_15 DBS13_16 AngS13_16 
!	DBS13_17 AngS13_17 
!	DBS14_1 AngS14_1 DBS14_2 AngS14_2 DBS14_3 AngS14_3 DBS14_4 AngS14_4 
!	DBS14_5 AngS14_5 DBS14_6 AngS14_6 DBS14_7 AngS14_7 DBS14_8 AngS14_8 
!	DBS14_9 AngS14_9 DBS14_10 AngS14_10 DBS14_11 AngS14_11 DBS14_12 AngS14_12 
!	DBS14_13 AngS14_13 DBS14_14 AngS14_14 DBS14_15 AngS14_15 DBS14_16 AngS14_16 
!	DBS14_17 AngS14_17 
!	DBS15_1 AngS15_1 DBS15_2 AngS15_2 DBS15_3 AngS15_3 DBS15_4 AngS15_4 
!	DBS15_5 AngS15_5 DBS15_6 AngS15_6 DBS15_7 AngS15_7 DBS15_8 AngS15_8 
!	DBS15_9 AngS15_9 DBS15_10 AngS15_10 DBS15_11 AngS15_11 DBS15_12 AngS15_12 
!	DBS15_13 AngS15_13 DBS15_14 AngS15_14 DBS15_15 AngS15_15 DBS15_16 AngS15_16 
!	DBS15_17 AngS15_17 
!	DBS16_1 AngS16_1 DBS16_2 AngS16_2 DBS16_3 AngS16_3 DBS16_4 AngS16_4 
!	DBS16_5 AngS16_5 DBS16_6 AngS16_6 DBS16_7 AngS16_7 DBS16_8 AngS16_8 
!	DBS16_9 AngS16_9 DBS16_10 AngS16_10 DBS16_11 AngS16_11 DBS16_12 AngS16_12 
!	DBS16_13 AngS16_13 DBS16_14 AngS16_14 DBS16_15 AngS16_15 DBS16_16 AngS16_16 
!	DBS16_17 AngS16_17 
!	DBS17_1 AngS17_1 DBS17_2 AngS17_2 DBS17_3 AngS17_3 DBS17_4 AngS17_4 
!	DBS17_5 AngS17_5 DBS17_6 AngS17_6 DBS17_7 AngS17_7 DBS17_8 AngS17_8 
!	DBS17_9 AngS17_9 DBS17_10 AngS17_10 DBS17_11 AngS17_11 DBS17_12 AngS17_12 
!	DBS17_13 AngS17_13 DBS17_14 AngS17_14 DBS17_15 AngS17_15 DBS17_16 AngS17_16 
!	DBS17_17 AngS17_17 
0 -1.1281619 180 -18.58988 -0 -18.589994 -0 -18.590199 -0 
	-18.590317 -0 -18.589345 -0 -18.589336 -0 -18.58723 -0 
	-18.587152 -0 -18.587152 -0 -18.58723 -0 -18.589336 -0 
	-18.589345 -0 -18.590317 -0 -18.590199 -0 -18.589994 -0 
	-18.58988 -0 
	-18.58988 0 -1.1557354 180 -18.174755 -0 -18.319033 -0 
	-18.31921 -0 -18.33439 -0 -18.334332 -0 -18.341441 -0 
	-18.341352 -0 -18.861855 -0 -18.861933 -0 -18.864039 -0 
	-18.864048 -0 -18.86502 -0 -18.864902 -0 -18.864697 -0 
	-18.864583 -0 
	-18.589994 0 -18.174755 0 -1.1557044 180 -18.319456 -0 
	-18.319409 -0 -18.334483 -0 -18.334465 -0 -18.341546 -0 
	-18.341485 -0 -18.861968 -0 -18.862046 -0 -18.864153 -0 
	-18.864161 -0 -18.865133 -0 -18.865015 -0 -18.86481 -0 
	-18.864697 -0 
	-18.590199 0 -18.319033 0 -18.319456 0 -1.1539218 180 
	-18.187112 -0 -18.325755 -0 -18.325772 -0 -18.335872 -0 
	-18.335722 -0 -18.862173 -0 -18.862251 -0 -18.864358 -0 
	-18.864367 -0 -18.865339 -0 -18.86522 -0 -18.865015 -0 
	-18.864902 -0 
	-18.590317 0 -18.31921 0 -18.319409 0 -18.187112 0 
	-1.1539681 180 -18.32582 -0 -18.32572 -0 -18.33595 -0 
	-18.335963 -0 -18.862291 -0 -18.862369 -0 -18.864476 -0 
	-18.864485 -0 -18.865457 -0 -18.865339 -0 -18.865133 -0 
	-18.86502 -0 
	-18.589345 0 -18.33439 0 -18.334483 0 -18.325755 0 
	-18.32582 0 -1.1538911 180 -18.187382 -0 -18.324263 -0 
	-18.324332 -0 -18.861319 -0 -18.861397 -0 -18.863504 -0 
	-18.863513 -0 -18.864485 -0 -18.864367 -0 -18.864161 -0 
	-18.864048 -0 
	-18.589336 0 -18.334332 0 -18.334465 0 -18.325772 0 
	-18.32572 0 -18.187382 0 -1.1539123 180 -18.324434 -0 
	-18.324125 -0 -18.86131 -0 -18.861389 -0 -18.863495 -0 
	-18.863504 -0 -18.864476 -0 -18.864358 -0 -18.864153 -0 
	-18.864039 -0 
	-18.58723 0 -18.341441 0 -18.341546 0 -18.335872 0 
	-18.33595 0 -18.324263 0 -18.324434 0 -1.1549411 180 
	-18.180013 -0 -18.859204 -0 -18.859282 -0 -18.861389 -0 
	-18.861397 -0 -18.862369 -0 -18.862251 -0 -18.862046 -0 
	-18.861933 -0 
	-18.587152 0 -18.341352 0 -18.341485 0 -18.335722 0 
	-18.335963 0 -18.324332 0 -18.324125 0 -18.180013 0 
	-1.1550221 180 -18.859126 -0 -18.859204 -0 -18.86131 -0 
	-18.861319 -0 -18.862291 -0 -18.862173 -0 -18.861968 -0 
	-18.861855 -0 
	-18.587152 0 -18.861855 0 -18.861968 0 -18.862173 0 
	-18.862291 0 -18.861319 0 -18.86131 0 -18.859204 0 
	-18.859126 0 -1.1550221 180 -18.180013 -0 -18.324125 -0 
	-18.324332 -0 -18.335963 -0 -18.335722 -0 -18.341485 -0 
	-18.341352 -0 
	-18.58723 0 -18.861933 0 -18.862046 0 -18.862251 0 
	-18.862369 0 -18.861397 0 -18.861389 0 -18.859282 0 
	-18.859204 0 -18.180013 0 -1.1549411 180 -18.324434 -0 
	-18.324263 -0 -18.33595 -0 -18.335872 -0 -18.341546 -0 
	-18.341441 -0 
	-18.589336 0 -18.864039 0 -18.864153 0 -18.864358 0 
	-18.864476 0 -18.863504 0 -18.863495 0 -18.861389 0 
	-18.86131 0 -18.324125 0 -18.324434 0 -1.1539123 180 
	-18.187382 -0 -18.32572 -0 -18.325772 -0 -18.334465 -0 
	-18.334332 -0 
	-18.589345 0 -18.864048 0 -18.864161 0 -18.864367 0 
	-18.864485 0 -18.863513 0 -18.863504 0 -18.861397 0 
	-18.861319 0 -18.324332 0 -18.324263 0 -18.187382 0 
	-1.1538911 180 -18.32582 -0 -18.325755 -0 -18.334483 -0 
	-18.33439 -0 
	-18.590317 0 -18.86502 0 -18.865133 0 -18.865339 0 
	-18.865457 0 -18.864485 0 -18.864476 0 -18.862369 0 
	-18.862291 0 -18.335963 0 -18.33595 0 -18.32572 0 
	-18.32582 0 -1.1539681 180 -18.187112 -0 -18.319409 -0 
	-18.31921 -0 
	-18.590199 0 -18.864902 0 -18.865015 0 -18.86522 0 
	-18.865339 0 -18.864367 0 -18.864358 0 -18.862251 0 
	-18.862173 0 -18.335722 0 -18.335872 0 -18.325772 0 
	-18.325755 0 -18.187112 0 -1.1539218 180 -18.319456 -0 
	-18.319033 -0 
	-18.589994 0 -18.864697 0 -18.86481 0 -18.865015 0 
	-18.865133 0 -18.864161 0 -18.864153 0 -18.862046 0 
	-18.861968 0 -18.341485 0 -18.341546 0 -18.334465 0 
	-18.334483 0 -18.319409 0 -18.319456 0 -1.1557044 180 
	-18.174755 -0 
	-18.58988 0 -18.864583 0 -18.864697 0 -18.864902 0 
	-18.86502 0 -18.864048 0 -18.864039 0 -18.861933 0 
	-18.861855 0 -18.341352 0 -18.341441 0 -18.334332 0 
	-18.33439 0 -18.31921 0 -18.319033 0 -18.174755 0 
	-1.1557354 180 
0.05 -1.1291098 178.10628 -18.621466 -4.538733 -18.621373 -4.5475513 -18.621706 -4.5700444 
	-18.621713 -4.5812275 -18.620667 -4.5370071 -18.620671 -4.5247613 -18.618382 -4.4389121 
	-18.618484 -4.4295994 -18.618484 -4.4295995 -18.618382 -4.4389121 -18.620671 -4.5247613 
	-18.620667 -4.5370071 -18.621713 -4.5812276 -18.621706 -4.5700444 -18.621373 -4.5475514 
	-18.621466 -4.538733 
	-18.621466 -4.538733 -1.184175 178.12113 -17.830498 9.4164691 -18.08687 4.3550501 
	-18.087603 4.2807305 -18.119731 3.3630665 -18.119872 3.3602568 -18.13443 3.0164799 
	-18.134544 3.0218009 -18.963684 -13.098463 -18.963583 -13.107776 -18.965872 -13.193625 
	-18.965867 -13.205871 -18.966914 -13.250091 -18.966907 -13.238908 -18.966574 -13.216415 
	-18.966667 -13.207597 
	-18.621373 -4.5475513 -17.830498 9.4164691 -1.1842045 178.13363 -18.085111 4.4794289 
	-18.086909 4.3225997 -18.119565 3.3660223 -18.119727 3.3598767 -18.134325 3.0113067 
	-18.134444 3.0160447 -18.963591 -13.107282 -18.96349 -13.116594 -18.965779 -13.202443 
	-18.965774 -13.214689 -18.966821 -13.25891 -18.966814 -13.247727 -18.966481 -13.225233 
	-18.966574 -13.216415 
	-18.621706 -4.5700444 -18.08687 4.3550501 -18.085111 4.4794289 -1.1821779 178.24439 
	-17.866476 8.6400666 -18.101117 3.9634031 -18.102008 3.9047958 -18.123619 3.308638 
	-18.123776 3.3085735 -18.963924 -13.129775 -18.963823 -13.139087 -18.966112 -13.224936 
	-18.966108 -13.237182 -18.967154 -13.281403 -18.967147 -13.27022 -18.966814 -13.247727 
	-18.966907 -13.238908 
	-18.621713 -4.5812275 -18.087603 4.2807305 -18.086909 4.3225997 -17.866476 8.6400666 
	-1.1822557 178.24892 -18.097398 4.2519148 -18.101157 3.962348 -18.123513 3.3135579 
	-18.123689 3.3101727 -18.963931 -13.140958 -18.96383 -13.15027 -18.966119 -13.23612 
	-18.966115 -13.248365 -18.967161 -13.292586 -18.967154 -13.281403 -18.966821 -13.25891 
	-18.966914 -13.250091 
	-18.620667 -4.5370071 -18.119731 3.3630665 -18.119565 3.3660223 -18.101117 3.9634031 
	-18.097398 4.2519148 -1.1817524 178.26 -17.871912 8.5685931 -18.098208 4.1806483 
	-18.098889 4.1382347 -18.962885 -13.096737 -18.962784 -13.10605 -18.965073 -13.191899 
	-18.965068 -13.204145 -18.966115 -13.248365 -18.966108 -13.237182 -18.965774 -13.214689 
	-18.965867 -13.205871 
	-18.620671 -4.5247613 -18.119872 3.3602568 -18.119727 3.3598767 -18.102008 3.9047958 
	-18.101157 3.962348 -17.871912 8.5685931 -1.1816854 178.25569 -18.096529 4.3364541 
	-18.098244 4.2114327 -18.962889 -13.084492 -18.962788 -13.093804 -18.965077 -13.179653 
	-18.965073 -13.191899 -18.966119 -13.23612 -18.966112 -13.224936 -18.965779 -13.202443 
	-18.965872 -13.193625 
	-18.618382 -4.4389121 -18.13443 3.0164799 -18.134325 3.0113067 -18.123619 3.308638 
	-18.123513 3.3135579 -18.098208 4.1806483 -18.096529 4.3364541 -1.1825071 178.16485 
	-17.848081 9.2223488 -18.9606 -12.998642 -18.960499 -13.007955 -18.962788 -13.093804 
	-18.962784 -13.10605 -18.96383 -13.15027 -18.963823 -13.139087 -18.96349 -13.116594 
	-18.963583 -13.107776 
	-18.618484 -4.4295994 -18.134544 3.0218009 -18.134444 3.0160447 -18.123776 3.3085735 
	-18.123689 3.3101727 -18.098889 4.1382347 -18.098244 4.2114327 -17.848081 9.2223488 
	-1.182479 178.15256 -18.960701 -12.98933 -18.9606 -12.998642 -18.962889 -13.084492 
	-18.962885 -13.096737 -18.963931 -13.140958 -18.963924 -13.129775 -18.963591 -13.107282 
	-18.963684 -13.098463 
	-18.618484 -4.4295995 -18.963684 -13.098463 -18.963591 -13.107282 -18.963924 -13.129775 
	-18.963931 -13.140958 -18.962885 -13.096737 -18.962889 -13.084492 -18.9606 -12.998642 
	-18.960701 -12.98933 -1.182479 178.15256 -17.848081 9.2223488 -18.098244 4.2114327 
	-18.098889 4.1382347 -18.123689 3.3101727 -18.123776 3.3085735 -18.134444 3.0160447 
	-18.134544 3.0218009 
	-18.618382 -4.4389121 -18.963583 -13.107776 -18.96349 -13.116594 -18.963823 -13.139087 
	-18.96383 -13.15027 -18.962784 -13.10605 -18.962788 -13.093804 -18.960499 -13.007955 
	-18.9606 -12.998642 -17.848081 9.2223488 -1.1825071 178.16485 -18.096529 4.3364541 
	-18.098208 4.1806483 -18.123513 3.3135579 -18.123619 3.308638 -18.134325 3.0113067 
	-18.13443 3.0164799 
	-18.620671 -4.5247613 -18.965872 -13.193625 -18.965779 -13.202443 -18.966112 -13.224936 
	-18.966119 -13.23612 -18.965073 -13.191899 -18.965077 -13.179653 -18.962788 -13.093804 
	-18.962889 -13.084492 -18.098244 4.2114327 -18.096529 4.3364541 -1.1816854 178.25569 
	-17.871912 8.5685931 -18.101157 3.962348 -18.102008 3.9047958 -18.119727 3.3598768 
	-18.119872 3.3602569 
	-18.620667 -4.5370071 -18.965867 -13.205871 -18.965774 -13.214689 -18.966108 -13.237182 
	-18.966115 -13.248365 -18.965068 -13.204145 -18.965073 -13.191899 -18.962784 -13.10605 
	-18.962885 -13.096737 -18.098889 4.1382347 -18.098208 4.1806483 -17.871912 8.5685931 
	-1.1817524 178.26 -18.097398 4.2519148 -18.101117 3.9634032 -18.119565 3.3660223 
	-18.119731 3.3630665 
	-18.621713 -4.5812276 -18.966914 -13.250091 -18.966821 -13.25891 -18.967154 -13.281403 
	-18.967161 -13.292586 -18.966115 -13.248365 -18.966119 -13.23612 -18.96383 -13.15027 
	-18.963931 -13.140958 -18.123689 3.3101727 -18.123513 3.3135579 -18.101157 3.962348 
	-18.097398 4.2519148 -1.1822557 178.24892 -17.866476 8.6400666 -18.086909 4.3225997 
	-18.087603 4.2807305 
	-18.621706 -4.5700444 -18.966907 -13.238908 -18.966814 -13.247727 -18.967147 -13.27022 
	-18.967154 -13.281403 -18.966108 -13.237182 -18.966112 -13.224936 -18.963823 -13.139087 
	-18.963924 -13.129775 -18.123776 3.3085735 -18.123619 3.308638 -18.102008 3.9047958 
	-18.101117 3.9634032 -17.866476 8.6400666 -1.1821779 178.24439 -18.085111 4.4794289 
	-18.08687 4.3550501 
	-18.621373 -4.5475514 -18.966574 -13.216415 -18.966481 -13.225233 -18.966814 -13.247727 
	-18.966821 -13.25891 -18.965774 -13.214689 -18.965779 -13.202443 -18.96349 -13.116594 
	-18.963591 -13.107282 -18.134444 3.0160447 -18.134325 3.0113067 -18.119727 3.3598768 
	-18.119565 3.3660223 -18.086909 4.3225997 -18.085111 4.4794289 -1.1842045 178.13363 
	-17.830498 9.4164691 
	-18.621466 -4.538733 -18.966667 -13.207597 -18.966574 -13.216415 -18.966907 -13.238908 
	-18.966914 -13.250091 -18.965867 -13.205871 -18.965872 -13.193625 -18.963583 -13.107776 
	-18.963684 -13.098463 -18.134544 3.0218009 -18.13443 3.0164799 -18.119872 3.3602569 
	-18.119731 3.3630665 -18.087603 4.2807305 -18.08687 4.3550501 -17.830498 9.4164691 
	-1.184175 178.12113 
0.1 -1.1215208 176.26018 -18.651911 -9.0125765 -18.651631 -9.0307931 -18.652334 -9.0636599 
	-18.652212 -9.0882601 -18.651967 -9.0004987 -18.651952 -8.978817 -18.650436 -8.8169623 
	-18.650664 -8.8008031 -18.650664 -8.8008032 -18.650436 -8.8169624 -18.651952 -8.9788171 
	-18.651967 -9.0004988 -18.652212 -9.0882602 -18.652334 -9.06366 -18.651631 -9.0307932 
	-18.651911 -9.0125766 
	-18.651911 -9.0125765 -1.2546105 176.38128 -17.050714 16.348604 -17.551296 7.1384904 
	-17.554136 6.9989502 -17.619304 5.3021479 -17.620051 5.2965855 -17.648836 4.6585392 
	-17.64922 4.6685753 -19.082364 -25.733936 -19.082135 -25.750095 -19.083652 -25.91195 
	-19.083666 -25.933631 -19.083912 -26.021393 -19.084033 -25.996793 -19.083331 -25.963926 
	-19.08361 -25.945709 
	-18.651631 -9.0307931 -17.050714 16.348604 -1.2547723 176.40717 -17.545059 7.3662342 
	-17.551063 7.0921049 -17.618658 5.3031731 -17.619397 5.2959696 -17.648435 4.6463649 
	-17.648801 4.6560544 -19.082084 -25.752152 -19.081855 -25.768312 -19.083372 -25.930166 
	-19.083387 -25.951848 -19.083632 -26.039609 -19.083754 -26.015009 -19.083051 -25.982142 
	-19.083331 -25.963926 
	-18.652334 -9.0636599 -17.551296 7.1384904 -17.545059 7.3662342 -1.252597 176.63052 
	-17.136504 14.961335 -17.58113 6.4014644 -17.584558 6.2931434 -17.628281 5.2052515 
	-17.62891 5.2058759 -19.082786 -25.785019 -19.082558 -25.801178 -19.084075 -25.963033 
	-19.084089 -25.984715 -19.084335 -26.072476 -19.084456 -26.047876 -19.083754 -26.015009 
	-19.084033 -25.996793 
	-18.652212 -9.0882601 -17.554136 6.9989502 -17.551063 7.0921049 -17.136504 14.961335 
	-1.2527841 176.64101 -17.568958 6.9316638 -17.580893 6.4128938 -17.627502 5.2107296 
	-17.628051 5.2071207 -19.082665 -25.809619 -19.082436 -25.825779 -19.083953 -25.987633 
	-19.083968 -26.009315 -19.084213 -26.097076 -19.084335 -26.072476 -19.083632 -26.039609 
	-19.083912 -26.021393 
	-18.651967 -9.0004987 -17.619304 5.3021479 -17.618658 5.3031731 -17.58113 6.4014644 
	-17.568958 6.9316638 -1.25144 176.66306 -17.150193 14.869622 -17.575417 6.8372285 
	-17.57774 6.7622031 -19.08242 -25.721858 -19.082191 -25.738017 -19.083708 -25.899872 
	-19.083722 -25.921554 -19.083968 -26.009315 -19.084089 -25.984715 -19.083387 -25.951848 
	-19.083666 -25.933631 
	-18.651952 -8.978817 -17.620051 5.2965855 -17.619397 5.2959696 -17.584558 6.2931434 
	-17.580893 6.4128938 -17.150193 14.869622 -1.2512256 176.65346 -17.569059 7.1259245 
	-17.574948 6.9002043 -19.082405 -25.700176 -19.082176 -25.716335 -19.083693 -25.87819 
	-19.083708 -25.899872 -19.083953 -25.987633 -19.084075 -25.963033 -19.083372 -25.930166 
	-19.083652 -25.91195 
	-18.650436 -8.8169623 -17.648836 4.6585392 -17.648435 4.6463649 -17.628281 5.2052515 
	-17.627502 5.2107296 -17.575417 6.8372285 -17.569059 7.1259245 -1.2511445 176.46853 
	-17.090039 16.067977 -19.080888 -25.538322 -19.080659 -25.554481 -19.082176 -25.716335 
	-19.082191 -25.738017 -19.082436 -25.825779 -19.082558 -25.801178 -19.081855 -25.768312 
	-19.082135 -25.750095 
	-18.650664 -8.8008031 -17.64922 4.6685753 -17.648801 4.6560544 -17.62891 5.2058759 
	-17.628051 5.2071207 -17.57774 6.7622031 -17.574948 6.9002043 -17.090039 16.067977 
	-1.2509767 176.44283 -19.081117 -25.522162 -19.080888 -25.538322 -19.082405 -25.700176 
	-19.08242 -25.721858 -19.082665 -25.809619 -19.082786 -25.785019 -19.082084 -25.752152 
	-19.082364 -25.733936 
	-18.650664 -8.8008032 -19.082364 -25.733936 -19.082084 -25.752152 -19.082786 -25.785019 
	-19.082665 -25.809619 -19.08242 -25.721858 -19.082405 -25.700176 -19.080888 -25.538322 
	-19.081117 -25.522162 -1.2509767 176.44283 -17.090039 16.067977 -17.574948 6.9002043 
	-17.57774 6.7622031 -17.628051 5.2071207 -17.62891 5.205876 -17.648801 4.6560544 
	-17.64922 4.6685753 
	-18.650436 -8.8169624 -19.082135 -25.750095 -19.081855 -25.768312 -19.082558 -25.801178 
	-19.082436 -25.825779 -19.082191 -25.738017 -19.082176 -25.716335 -19.080659 -25.554481 
	-19.080888 -25.538322 -17.090039 16.067977 -1.2511445 176.46853 -17.569059 7.1259245 
	-17.575417 6.8372285 -17.627502 5.2107296 -17.628281 5.2052515 -17.648435 4.6463649 
	-17.648836 4.6585392 
	-18.651952 -8.9788171 -19.083652 -25.91195 -19.083372 -25.930166 -19.084075 -25.963033 
	-19.083953 -25.987633 -19.083708 -25.899872 -19.083693 -25.87819 -19.082176 -25.716335 
	-19.082405 -25.700176 -17.574948 6.9002043 -17.569059 7.1259245 -1.2512256 176.65346 
	-17.150193 14.869622 -17.580893 6.4128938 -17.584558 6.2931434 -17.619397 5.2959696 
	-17.620051 5.2965855 
