! Created Wed Nov 18 20:24:42 2020
# hz S ma R 50
! 18 Port Network Data from SP1.SP block
! freq  magS1_1  angS1_1  magS1_2  angS1_2  magS1_3  angS1_3  magS1_4  angS1_4  
!       magS1_5  angS1_5  magS1_6  angS1_6  magS1_7  angS1_7  magS1_8  angS1_8  
!       magS1_9  angS1_9  magS1_10  angS1_10  magS1_11  angS1_11  magS1_12  angS1_12  
!       magS1_13  angS1_13  magS1_14  angS1_14  magS1_15  angS1_15  magS1_16  angS1_16  
!       magS1_17  angS1_17  magS1_18  angS1_18  
!       magS2_1  angS2_1  magS2_2  angS2_2  
!       magS2_3  angS2_3  magS2_4  angS2_4  magS2_5  angS2_5  magS2_6  angS2_6  
!       magS2_7  angS2_7  magS2_8  angS2_8  magS2_9  angS2_9  magS2_10  angS2_10  
!       magS2_11  angS2_11  magS2_12  angS2_12  magS2_13  angS2_13  magS2_14  angS2_14  
!       magS2_15  angS2_15  magS2_16  angS2_16  magS2_17  angS2_17  magS2_18  angS2_18  
!       magS3_1  angS3_1  magS3_2  angS3_2  magS3_3  angS3_3  magS3_4  angS3_4  
!       magS3_5  angS3_5  magS3_6  angS3_6  magS3_7  angS3_7  magS3_8  angS3_8  
!       magS3_9  angS3_9  magS3_10  angS3_10  magS3_11  angS3_11  magS3_12  angS3_12  
!       magS3_13  angS3_13  magS3_14  angS3_14  magS3_15  angS3_15  magS3_16  angS3_16  
!       magS3_17  angS3_17  magS3_18  angS3_18  
!       magS4_1  angS4_1  magS4_2  angS4_2  
!       magS4_3  angS4_3  magS4_4  angS4_4  magS4_5  angS4_5  magS4_6  angS4_6  
!       magS4_7  angS4_7  magS4_8  angS4_8  magS4_9  angS4_9  magS4_10  angS4_10  
!       magS4_11  angS4_11  magS4_12  angS4_12  magS4_13  angS4_13  magS4_14  angS4_14  
!       magS4_15  angS4_15  magS4_16  angS4_16  magS4_17  angS4_17  magS4_18  angS4_18  
!       magS5_1  angS5_1  magS5_2  angS5_2  magS5_3  angS5_3  magS5_4  angS5_4  
!       magS5_5  angS5_5  magS5_6  angS5_6  magS5_7  angS5_7  magS5_8  angS5_8  
!       magS5_9  angS5_9  magS5_10  angS5_10  magS5_11  angS5_11  magS5_12  angS5_12  
!       magS5_13  angS5_13  magS5_14  angS5_14  magS5_15  angS5_15  magS5_16  angS5_16  
!       magS5_17  angS5_17  magS5_18  angS5_18  
!       magS6_1  angS6_1  magS6_2  angS6_2  
!       magS6_3  angS6_3  magS6_4  angS6_4  magS6_5  angS6_5  magS6_6  angS6_6  
!       magS6_7  angS6_7  magS6_8  angS6_8  magS6_9  angS6_9  magS6_10  angS6_10  
!       magS6_11  angS6_11  magS6_12  angS6_12  magS6_13  angS6_13  magS6_14  angS6_14  
!       magS6_15  angS6_15  magS6_16  angS6_16  magS6_17  angS6_17  magS6_18  angS6_18  
!       magS7_1  angS7_1  magS7_2  angS7_2  magS7_3  angS7_3  magS7_4  angS7_4  
!       magS7_5  angS7_5  magS7_6  angS7_6  magS7_7  angS7_7  magS7_8  angS7_8  
!       magS7_9  angS7_9  magS7_10  angS7_10  magS7_11  angS7_11  magS7_12  angS7_12  
!       magS7_13  angS7_13  magS7_14  angS7_14  magS7_15  angS7_15  magS7_16  angS7_16  
!       magS7_17  angS7_17  magS7_18  angS7_18  
!       magS8_1  angS8_1  magS8_2  angS8_2  
!       magS8_3  angS8_3  magS8_4  angS8_4  magS8_5  angS8_5  magS8_6  angS8_6  
!       magS8_7  angS8_7  magS8_8  angS8_8  magS8_9  angS8_9  magS8_10  angS8_10  
!       magS8_11  angS8_11  magS8_12  angS8_12  magS8_13  angS8_13  magS8_14  angS8_14  
!       magS8_15  angS8_15  magS8_16  angS8_16  magS8_17  angS8_17  magS8_18  angS8_18  
!       magS9_1  angS9_1  magS9_2  angS9_2  magS9_3  angS9_3  magS9_4  angS9_4  
!       magS9_5  angS9_5  magS9_6  angS9_6  magS9_7  angS9_7  magS9_8  angS9_8  
!       magS9_9  angS9_9  magS9_10  angS9_10  magS9_11  angS9_11  magS9_12  angS9_12  
!       magS9_13  angS9_13  magS9_14  angS9_14  magS9_15  angS9_15  magS9_16  angS9_16  
!       magS9_17  angS9_17  magS9_18  angS9_18  
!       magS10_1  angS10_1  magS10_2  angS10_2  
!       magS10_3  angS10_3  magS10_4  angS10_4  magS10_5  angS10_5  magS10_6  angS10_6  
!       magS10_7  angS10_7  magS10_8  angS10_8  magS10_9  angS10_9  magS10_10  angS10_10  
!       magS10_11  angS10_11  magS10_12  angS10_12  magS10_13  angS10_13  magS10_14  angS10_14  
!       magS10_15  angS10_15  magS10_16  angS10_16  magS10_17  angS10_17  magS10_18  angS10_18  
!       magS11_1  angS11_1  magS11_2  angS11_2  magS11_3  angS11_3  magS11_4  angS11_4  
!       magS11_5  angS11_5  magS11_6  angS11_6  magS11_7  angS11_7  magS11_8  angS11_8  
!       magS11_9  angS11_9  magS11_10  angS11_10  magS11_11  angS11_11  magS11_12  angS11_12  
!       magS11_13  angS11_13  magS11_14  angS11_14  magS11_15  angS11_15  magS11_16  angS11_16  
!       magS11_17  angS11_17  magS11_18  angS11_18  
!       magS12_1  angS12_1  magS12_2  angS12_2  
!       magS12_3  angS12_3  magS12_4  angS12_4  magS12_5  angS12_5  magS12_6  angS12_6  
!       magS12_7  angS12_7  magS12_8  angS12_8  magS12_9  angS12_9  magS12_10  angS12_10  
!       magS12_11  angS12_11  magS12_12  angS12_12  magS12_13  angS12_13  magS12_14  angS12_14  
!       magS12_15  angS12_15  magS12_16  angS12_16  magS12_17  angS12_17  magS12_18  angS12_18  
!       magS13_1  angS13_1  magS13_2  angS13_2  magS13_3  angS13_3  magS13_4  angS13_4  
!       magS13_5  angS13_5  magS13_6  angS13_6  magS13_7  angS13_7  magS13_8  angS13_8  
!       magS13_9  angS13_9  magS13_10  angS13_10  magS13_11  angS13_11  magS13_12  angS13_12  
!       magS13_13  angS13_13  magS13_14  angS13_14  magS13_15  angS13_15  magS13_16  angS13_16  
!       magS13_17  angS13_17  magS13_18  angS13_18  
!       magS14_1  angS14_1  magS14_2  angS14_2  
!       magS14_3  angS14_3  magS14_4  angS14_4  magS14_5  angS14_5  magS14_6  angS14_6  
!       magS14_7  angS14_7  magS14_8  angS14_8  magS14_9  angS14_9  magS14_10  angS14_10  
!       magS14_11  angS14_11  magS14_12  angS14_12  magS14_13  angS14_13  magS14_14  angS14_14  
!       magS14_15  angS14_15  magS14_16  angS14_16  magS14_17  angS14_17  magS14_18  angS14_18  
!       magS15_1  angS15_1  magS15_2  angS15_2  magS15_3  angS15_3  magS15_4  angS15_4  
!       magS15_5  angS15_5  magS15_6  angS15_6  magS15_7  angS15_7  magS15_8  angS15_8  
!       magS15_9  angS15_9  magS15_10  angS15_10  magS15_11  angS15_11  magS15_12  angS15_12  
!       magS15_13  angS15_13  magS15_14  angS15_14  magS15_15  angS15_15  magS15_16  angS15_16  
!       magS15_17  angS15_17  magS15_18  angS15_18  
!       magS16_1  angS16_1  magS16_2  angS16_2  
!       magS16_3  angS16_3  magS16_4  angS16_4  magS16_5  angS16_5  magS16_6  angS16_6  
!       magS16_7  angS16_7  magS16_8  angS16_8  magS16_9  angS16_9  magS16_10  angS16_10  
!       magS16_11  angS16_11  magS16_12  angS16_12  magS16_13  angS16_13  magS16_14  angS16_14  
!       magS16_15  angS16_15  magS16_16  angS16_16  magS16_17  angS16_17  magS16_18  angS16_18  
!       magS17_1  angS17_1  magS17_2  angS17_2  magS17_3  angS17_3  magS17_4  angS17_4  
!       magS17_5  angS17_5  magS17_6  angS17_6  magS17_7  angS17_7  magS17_8  angS17_8  
!       magS17_9  angS17_9  magS17_10  angS17_10  magS17_11  angS17_11  magS17_12  angS17_12  
!       magS17_13  angS17_13  magS17_14  angS17_14  magS17_15  angS17_15  magS17_16  angS17_16  
!       magS17_17  angS17_17  magS17_18  angS17_18  
!       magS18_1  angS18_1  magS18_2  angS18_2  
!       magS18_3  angS18_3  magS18_4  angS18_4  magS18_5  angS18_5  magS18_6  angS18_6  
!       magS18_7  angS18_7  magS18_8  angS18_8  magS18_9  angS18_9  magS18_10  angS18_10  
!       magS18_11  angS18_11  magS18_12  angS18_12  magS18_13  angS18_13  magS18_14  angS18_14  
!       magS18_15  angS18_15  magS18_16  angS18_16  magS18_17  angS18_17  magS18_18  angS18_18  
!     
                 0       0.961605874         167.728597      1.4649006e-17        -12.0113037     2.02355414e-22         81.1933141     5.65577102e-22         85.5038713
                   8.69248415e-20         72.6103216     5.07249147e-20         74.3975051     6.70810606e-20         74.1555939     5.87938377e-22         67.9398677
                                0                  0     6.70810606e-20         74.1555939     5.87938377e-22         67.9398677                  0                  0
                   4.65979938e-20         73.0885489     2.08109091e-22         70.0048544                  0                  0     4.65979938e-20         73.0885489
                   2.08109091e-22         70.0048544                  0                  0
                    1.4649006e-17        -12.0113037        0.961610879         167.728598     3.94256832e-22         60.5616012     3.21936726e-22         64.9975497
                   4.02671301e-20         75.0692623     1.48135407e-19         74.6878851     3.02078871e-20          72.539291     3.05781984e-22         78.2226798
                                0                  0     3.02078871e-20          72.539291     3.05781984e-22         78.2226798                  0                  0
                   1.23690026e-19         72.8676011     3.62060007e-22         80.6889235                  0                  0     1.23690026e-19         72.8676011
                   3.62060007e-22         80.6889235                  0                  0
                   2.02355414e-22         81.1933141     3.94256832e-22         60.5616012        0.332936671                180     1.03019698e-19     8.66414757e-15
                   2.85619292e-20        -1.07297013      1.5843052e-19       -0.638635879     3.17455899e-20         0.48266024     1.03318138e-19     9.35515131e-16
                                0                  0     3.17455899e-20         0.48266024     1.03318138e-19     9.35515131e-16                  0                  0
                   1.92334021e-19        0.263025944        0.666468335     1.17040716e-15                  0                  0     1.92334021e-19        0.263025944
                      0.666468335     1.17040716e-15                  0                  0
                   5.65577102e-22         85.5038713     3.21936726e-22         64.9975497     1.03019698e-19     8.66414756e-15        0.333051548                180
                   1.51075542e-19        -1.18448242      7.6731779e-20       -0.380559718     1.76323135e-19        0.507409073        0.666525773     3.63775197e-15
                                0                  0     1.76323135e-19        0.507409073        0.666525773     3.63775197e-15                  0                  0
                   9.12864878e-20        0.159940688     1.03292722e-19     8.42868771e-16                  0                  0     9.12864878e-20        0.159940688
                   1.03292722e-19     8.42868771e-16                  0                  0
                   8.69248415e-20         72.6103216     4.02671301e-20         75.0692623     2.85619292e-20        -1.07297013     1.51075542e-19        -1.18448242
                      0.172372687         171.368175     4.43636128e-18        0.919778256        0.585353064        -1.26623541     1.51493109e-19         -1.1847575
                                0                  0        0.585353064        -1.26623541     1.51493109e-19         -1.1847575                  0                  0
                   4.95336825e-18        -1.39113498     2.85408894e-20        -1.07299268                  0                  0     4.95336825e-18        -1.39113498
                   2.85408894e-20        -1.07299268                  0                  0
                   5.07249147e-20         74.3975051     1.48135407e-19         74.6878851      1.5843052e-19       -0.638635879      7.6731779e-20       -0.380559718
                   4.43636128e-18        0.919778256        0.173431778         173.598164     3.97835323e-18          1.8122123     7.69835201e-20       -0.382746853
                                0                  0     3.97835323e-18          1.8122123     7.69835201e-20       -0.382746853                  0                  0
                      0.586254895        -0.94500134     1.60865148e-19       -0.643530838                  0                  0        0.586254895        -0.94500134
                   1.60865148e-19       -0.643530838                  0                  0
                   6.70810606e-20         74.1555939     3.02078871e-20          72.539291     3.17455899e-20         0.48266024     1.76323135e-19        0.507409073
                      0.585353064        -1.26623541     3.97835323e-18          1.8122123        0.292676533         178.733765     1.75960496e-19        0.509978606
                                0                  0        0.707424503        0.523833122     1.75960496e-19        0.509978606                  0                  0
                   4.47761545e-18        -0.26335969     3.17166987e-20        0.482754178                  0                  0     4.47761545e-18        -0.26335969
                   3.17166987e-20        0.482754178                  0                  0
                   5.87938377e-22         67.9398677     3.05781984e-22         78.2226798     1.03318138e-19     9.35515134e-16        0.666525773     3.63775197e-15
                   1.51493109e-19         -1.1847575     7.69835201e-20       -0.382746853     1.75960496e-19        0.509978606        0.333262888                180
                                0                  0     1.75960496e-19        0.509978606        0.666737112     5.19589232e-15                  0                  0
                   9.10817852e-20        0.161750343      1.0304865e-19     3.53548373e-15                  0                  0     9.10817852e-20        0.161750343
                    1.0304865e-19     3.53548373e-15                  0                  0
                                0                  0                  0                  0                  0                  0                  0                  0
                                0                  0                  0                  0                  0                  0                  0                  0
                      0.999360409                180                  0                  0                  0                  0     0.000639590662                  0
                                0                  0                  0                  0                  0                  0                  0                  0
                                0                  0                  0                  0
                   6.70810606e-20         74.1555939     3.02078871e-20          72.539291     3.17455899e-20         0.48266024     1.76323135e-19        0.507409073
                      0.585353064        -1.26623541     3.97835323e-18          1.8122123        0.707424503        0.523833122     1.75960496e-19        0.509978606
                                0                  0        0.292676533         178.733765     1.75960496e-19        0.509978606                  0                  0
                   4.47761545e-18        -0.26335969     3.17166987e-20        0.482754178                  0                  0     4.47761545e-18        -0.26335969
                   3.17166987e-20        0.482754178                  0                  0
                   5.87938377e-22         67.9398677     3.05781984e-22         78.2226798     1.03318138e-19     9.35515134e-16        0.666525773     3.63775197e-15
                   1.51493109e-19         -1.1847575     7.69835201e-20       -0.382746853     1.75960496e-19        0.509978606        0.666737112     5.19589232e-15
                                0                  0     1.75960496e-19        0.509978606        0.333262888                180                  0                  0
                   9.10817852e-20        0.161750343      1.0304865e-19     3.53548373e-15                  0                  0     9.10817852e-20        0.161750343
                    1.0304865e-19     3.53548373e-15                  0                  0
                                0                  0                  0                  0                  0                  0                  0                  0
                                0                  0                  0                  0                  0                  0                  0                  0
                   0.000639590662                  0                  0                  0                  0                  0        0.999360409                180
                                0                  0                  0                  0                  0                  0                  0                  0
                                0                  0                  0                  0
                   4.65979938e-20         73.0885489     1.23690026e-19         72.8676011     1.92334021e-19        0.263025944     9.12864878e-20        0.159940688
                   4.95336825e-18        -1.39113498        0.586254895        -0.94500134     4.47761545e-18        -0.26335969     9.10817852e-20        0.161750343
                                0                  0     4.47761545e-18        -0.26335969     9.10817852e-20        0.161750343                  0                  0
                      0.293127449         179.054999     1.90884329e-19        0.271158701                  0                  0         0.70692895        0.391829237
                   1.90884329e-19        0.271158701                  0                  0
                   2.08109091e-22         70.0048544     3.62060007e-22         80.6889235        0.666468335     1.17040716e-15     1.03292722e-19     8.42868771e-16
                   2.85408894e-20        -1.07299268     1.60865148e-19       -0.643530838     3.17166987e-20        0.482754178      1.0304865e-19     3.53548373e-15
                                0                  0     3.17166987e-20        0.482754178      1.0304865e-19     3.53548373e-15                  0                  0
                   1.90884329e-19        0.271158701        0.333234168                180                  0                  0     1.90884329e-19        0.271158701
                      0.666765832      2.9216937e-15                  0                  0
                                0                  0                  0                  0                  0                  0                  0                  0
                                0                  0                  0                  0                  0                  0                  0                  0
                                0                  0                  0                  0                  0                  0                  0                  0
                                0                  0                  0                  0        0.999360409                180                  0                  0
                                0                  0     0.000639590662                  0
                   4.65979938e-20         73.0885489     1.23690026e-19         72.8676011     1.92334021e-19        0.263025944     9.12864878e-20        0.159940688
                   4.95336825e-18        -1.39113498        0.586254895        -0.94500134     4.47761545e-18        -0.26335969     9.10817852e-20        0.161750343
                                0                  0     4.47761545e-18        -0.26335969     9.10817852e-20        0.161750343                  0                  0
                       0.70692895        0.391829237     1.90884329e-19        0.271158701                  0                  0        0.293127449         179.054999
                   1.90884329e-19        0.271158701                  0                  0
                   2.08109091e-22         70.0048544     3.62060007e-22         80.6889235        0.666468335     1.17040716e-15     1.03292722e-19     8.42868771e-16
                   2.85408894e-20        -1.07299268     1.60865148e-19       -0.643530838     3.17166987e-20        0.482754178      1.0304865e-19     3.53548373e-15
