! Created Fri Sep 18 17:02:47 2020
# hz S ma R 50
! 4 Port Network Data from SP1.SP block
! freq  magS11  angS11  magS12  angS12  magS13  angS13  magS14  angS14  
!       magS21  angS21  magS22  angS22  magS23  angS23  magS24  angS24  
!       magS31  angS31  magS32  angS32  magS33  angS33  magS34  angS34  
!       magS41  angS41  magS42  angS42  magS43  angS43  magS44  angS44  
!     
                 0    3.59823367e-05                  0     7.87128467e-20                  0        0.999964018                  0     7.87128206e-20                180
                   7.87128871e-20                  0     1.46307368e-05                  0     7.87127802e-20                180        0.999985369                  0
                      0.999964018                  0     7.87128206e-20                180     3.59823367e-05                  0     7.87128467e-20                  0
                   7.87127803e-20                180        0.999985369                  0     7.87128871e-20                  0     1.46307368e-05                  0

             10000    9.34216197e-05        -71.9313348     1.10092052e-08         89.9921696        0.999971013     -0.00513466624     1.10091925e-08        -90.0075064
                   1.10092052e-08         89.9921714     9.01591605e-06        -16.7961214     1.10091925e-08        -90.0134606        0.999991368    -0.000173979354
                      0.999971013     -0.00513466624     1.10091925e-08        -90.0134588     9.34190653e-05        -71.9307939     1.10092052e-08         89.9868637
                   1.10091925e-08        -90.0075082        0.999991368    -0.000173979354     1.10092052e-08         89.9868655     9.01589232e-06        -16.7956453

            100000    0.000888400411        -88.1813565     1.10074451e-07         89.9225909        0.999970614      -0.0513355836     1.10074505e-07         -90.074197
                    1.1007454e-07         89.9225909     2.72557963e-05         -71.524158     1.10074437e-07        -90.1337239        0.999991361     -0.00172817972
                      0.999970614      -0.0513355836     1.10074526e-07        -90.1337239     0.000888373603        -88.1810044     1.10074472e-07         89.8694826
                   1.10074416e-07        -90.0741971        0.999991361     -0.00172817972      1.1007456e-07         89.8694827     2.72550213e-05         -71.523851

           1000000     0.00887913863        -90.3259105     1.09148949e-06          89.669842        0.999931305       -0.513332326     1.09148963e-06        -90.2980644
                   1.09148949e-06          89.669842     0.000258744312        -88.0661975     1.09147095e-06         -90.896094        0.999991163      -0.0172765663
                      0.999931305       -0.513332326     1.09147095e-06         -90.896094      0.00887887735        -90.3229789     1.09147114e-06         89.1359979
                   1.09148963e-06        -90.2980644        0.999991163      -0.0172765663     1.09147114e-06         89.1359979     0.000258736006        -88.0684872

          10000000      0.0884496828        -95.1142744     1.08240441e-05         92.4283973        0.996049379        -5.11992423     1.08242066e-05        -87.2506775
                   1.08240441e-05         92.4283973       0.0025880432         -89.945142     1.07322051e-05        -93.2449747        0.999986895       -0.172646552
                      0.996049379        -5.11992423     1.07322051e-05        -93.2449747       0.0884472931        -95.0855349     1.07323662e-05         87.0759505
                   1.08242066e-05        -87.2506775        0.999986895       -0.172646552     1.07323663e-05         87.0759505      0.00258795328        -89.9681551

         100000000       0.663871234         -132.18947     0.000137574142         100.588995        0.747745499        -42.0493663     0.000137780618        -76.2047823
                   0.000137574142         100.588995       0.0258857346         -91.566603       8.622577e-05        -112.372339        0.999644659        -1.72543441
                      0.747745499        -42.0493663       8.622577e-05        -112.372339        0.663843902        -131.901332     8.63551803e-05         70.8338846
                   0.000137780618        -76.2047823        0.999644659        -1.72543441     8.63551803e-05         70.8338846       0.0258840456        -91.7946466

         110000000       0.698617714         -134.96985     0.000154456923         100.214563        0.715381662        -44.8151196      0.00015473738        -76.2593043
                   0.000154456923         100.214563       0.0284734063        -91.7297766     9.19683044e-05        -113.379103        0.999573314        -1.89785352
                      0.715381662        -44.8151196     9.19683044e-05        -113.379103        0.698588065         -134.65281     9.21352966e-05         70.1470304
                    0.00015473738        -76.2593043        0.999573314        -1.89785352     9.21352966e-05         70.1470304       0.0284714676        -91.9804863

         120000000       0.729032777        -137.518966     0.000171565043         99.7664945        0.684352597        -47.3496322     0.000171935723        -76.3876668
                   0.000171565043         99.7664945       0.0310606022        -91.8926765     9.73580407e-05        -114.207492        0.999495331        -2.07024832
                      0.684352597        -47.3496322     9.73580407e-05        -114.207492        0.729000971        -137.173019       9.756839e-05         69.6383468
                   0.000171935723        -76.3876668        0.999495331        -2.07024832       9.756839e-05         69.6383468        0.031058404        -92.1660472

         130000000       0.755661721        -139.856776     0.000188834824         99.2706628        0.654822587        -49.6728567     0.000189313568        -76.5640153
                   0.000188834824         99.2706628       0.0336472606        -92.0553471      0.00010245244        -114.878967        0.999410708        -2.24261743
                      0.654822587        -49.6728567      0.00010245244        -114.878967        0.755627904        -139.481917     0.000102712183         69.2863547
                   0.000189313568        -76.5640153        0.999410708        -2.24261743     0.000102712183         69.2863547       0.0336447934        -92.3513753

         140000000       0.779000787        -142.002696     0.000206216461         98.7460344        0.626869506        -51.8042046     0.000206822686        -76.7694014
                   0.000206216461         98.7460344       0.0362333224        -92.2178207     0.000107302694        -115.413945        0.999319444        -2.41495934
                      0.626869506        -51.8042046     0.000107302694        -115.413945        0.778965088        -141.598918     0.000107618138         69.0706187
                   0.000206822686        -76.7694014        0.999319444        -2.41495934     0.000107618138         69.0706187        0.036230577        -92.5365039

         150000000       0.799491547        -143.975066     0.000223671705         98.2062838        0.600509417        -53.7620153     0.000224426384        -76.9901691
                   0.000223671705         98.2062838       0.0388187306        -92.3801219     0.000111953357        -115.831309        0.999221539        -2.58727237
                      0.600509417        -53.7620153     0.000111953357        -115.831309        0.799454082        -143.542365     0.000112331093          68.972238
                   0.000224426384        -76.9901691        0.999221539        -2.58727237     0.000112331093          68.972238       0.0388156981        -92.7214584

         160000000       0.817520944        -145.790873     0.000241171621         97.6611138        0.575715916        -55.5632709      0.00024209726        -77.2166336
                   0.000241171621         97.6611138       0.0414034295        -92.5422697     0.000116442546        -116.148166        0.999116993        -2.75955482
                      0.575715916        -55.5632709     0.000116442546        -116.148166        0.817481816        -145.329241     0.000116889463         68.9740862
                    0.00024209726        -77.2166336        0.999116993        -2.75955482     0.000116889463         68.9740862       0.0414001011        -92.9062583

         170000000       0.833424533        -147.465625     0.000258694597         97.1172913        0.552434777        -57.2234797     0.000259815224        -77.4420463
                   0.000258694597         97.1172913       0.0439873644        -92.7042793     0.000120802457        -116.379784        0.999005809        -2.93180489
                      0.552434777        -57.2234797     0.000120802457        -116.379784        0.833383835        -146.975056     0.000121325756         69.0608785
                   0.000259815224        -77.4420463        0.999005809        -2.93180489     0.000121325756         69.0608785       0.0439837317        -93.0909191

         180000000       0.847491309        -149.013351     0.000276224701         96.5794351        0.530594698        -58.7566679     0.000277565851        -77.6618065
                   0.000276224701         96.5794351       0.0465704815        -92.8661627      0.00012506002        -116.539627         0.99888799        -3.10402076
                      0.530594698        -58.7566679      0.00012506002        -116.539627        0.847449123        -148.493838     0.000125667222         69.2191314
                   0.000277565851        -77.6618065         0.99888799        -3.10402076     0.000125667222         69.2191314       0.0465665359        -93.2754532

         190000000       0.859969092        -150.446655     0.000293750343         96.0506063         0.51011499        -60.1754375     0.000295339044        -77.8728709
                   0.000293750343         96.0506063       0.0491527271        -93.0279297     0.000129237587        -116.639466         0.99876354        -3.27620057
                       0.51011499        -60.1754375     0.000129237587        -116.639466        0.859925493        -149.898189     0.000129936548         69.4370567
                   0.000295339044        -77.8728709         0.99876354        -3.27620057     0.000129936548         69.4370567       0.0491484605        -93.4598704

         200000000       0.871069882         -151.77681     0.000311263225         95.5327446        0.490910935        -61.4910611     0.000313127994        -78.0733178
                   0.000311263225         95.5327446       0.0517340481        -93.1895881     0.000133353595        -116.689517        0.998632465        -3.44834246
                      0.490910935        -61.4910611     0.000133353595        -116.689517        0.871024938        -151.199382     0.000134152513         69.7044211
                   0.000313127994        -78.0733178        0.998632465        -3.44834246     0.000134152513         69.7044211       0.0517294525         -93.644179

         210000000       0.880974851        -153.013872     0.000328757531         95.0269885        0.472897426        -62.7135938      0.00033092836        -78.2620264
                   0.000328757531         95.0269885       0.0543143916        -93.3511443     0.000137423171        -116.698593        0.998494769        -3.62044455
                      0.472897426        -62.7135938     0.000137423171        -116.698593        0.880928625        -152.407473     0.000138330594          70.012392
                    0.00033092836        -78.2620264        0.998494769        -3.62044455     0.000138330594          70.012392       0.0543094591        -93.8283853

         220000000       0.889838835        -154.166798     0.000346229301         94.5339091        0.455991351        -63.8519912      0.00034873765         -78.438443
                   0.000346229301         94.5339091        0.056893705        -93.5126034     0.000141458665        -116.674266         0.99835046        -3.79250493
                      0.455991351        -63.8519912     0.000141458665        -116.674266        0.889791383        -153.531419       0.0001424835         70.3533819
                    0.00034873765         -78.438443         0.99835046        -3.79250493       0.0001424835         70.3533819       0.0568884279        -94.0124947

         230000000       0.897794265         -155.24356     0.000363675951         94.0536804        0.440113085        -64.9142238     0.000366554741        -78.6024114
                   0.000363675951         94.0536804       0.0594719358        -93.6739695     0.000145470119         -116.62301        0.998199545        -3.96452171
                      0.440113085        -64.9142238     0.000145470119         -116.62301         0.89774564         -154.57919     0.000146621633         70.7208987
                   0.000366554741        -78.6024114        0.998199545        -3.96452171     0.000146621633         70.7208987       0.0594663066        -94.1965113

         240000000        0.90495457        -156.251252     0.000381095919         93.5862022        0.425187361         -65.907386     0.000384379524        -78.7540488
                   0.000381095919         93.5862022       0.0620490317        -93.8352458     0.000149465651        -116.550342         0.99804203        -4.13649298
                      0.425187361         -65.907386     0.000149465651        -116.550342        0.904904821         -155.55788      0.00015075348         71.1094071
                   0.000384379524        -78.7540488         0.99804203        -4.13649298      0.00015075348         71.1094071        0.062043043        -94.3804385

         250000000       0.911417081        -157.196193     0.000398488384         93.1311895        0.411143705        -66.8377959     0.000402212626        -78.8936577
                   0.000398488384         93.1311895       0.0646249406        -93.9964349     0.000153451799         -116.46095        0.997877925        -4.30841684
                      0.411143705        -66.8377959     0.000153451799         -116.46095        0.911366253        -156.473808     0.000154885947         71.5142024
                   0.000402212626        -78.8936577        0.997877925        -4.30841684     0.000154885947         71.5142024       0.0646185852        -94.5642789

         260000000        0.91726549        -158.084016     0.000415853071         92.6882362        0.397916579        -67.7110851     0.000420055209         -79.021661
                   0.000415853071         92.6882362       0.0671996105        -94.1575386     0.000157433789        -116.358805        0.997707238        -4.48029137
                      0.397916579        -67.7110851     0.000157433789        -116.358805        0.917213625        -157.332605     0.000159024636         71.9312977
                   0.000420055209         -79.021661        0.997707238        -4.48029137     0.000159024636         71.9312977       0.0671928813        -94.7480346

         270000000       0.922571934        -158.919748     0.000433190088         92.2568616        0.385445336        -68.5322801     0.000437908816        -79.1385565
                   0.000433190088         92.2568616       0.0697729896        -94.3185584     0.000161415776        -116.247257        0.997529978        -4.65211466
                      0.385445336        -68.5322801     0.000161415776        -116.247257        0.922519071        -158.139299     0.000163174073         72.3573245
                   0.000437908816        -79.1385565        0.997529978        -4.65211466     0.000163174073         72.3573245       0.0697658797         -94.931707

         280000000       0.927398743        -159.707881     0.000450499816         91.8365427        0.373674051         -69.305873     0.000455775253        -79.2448838
                   0.000450499816         91.8365427       0.0723450262        -94.4794954     0.000165401028        -116.129129        0.997346154        -4.82388479
                      0.373674051         -69.305873     0.000165401028        -116.129129        0.927344918        -158.898381     0.000167337905         72.7894448
                   0.000455775253        -79.2448838        0.997346154        -4.82388479     0.000167337905         72.7894448       0.0723375288        -95.1152974

         290000000       0.931799912        -160.452437     0.000467782824         91.4267375        0.362551276        -70.0358856     0.000473656505        -79.3412017
                   0.000467782824         91.4267375       0.0749156687        -94.6403502     0.000169392093        -116.006786        0.997155777        -4.99559986
                      0.362551276        -70.0358856     0.000169392093        -116.006786         0.93174516        -159.613873     0.000171519052         73.2252753
                   0.000473656505        -79.3412017        0.997155777        -4.99559986     0.000171519052         73.2252753       0.0749077772        -95.2988063

         300000000       0.935822344        -161.157024     0.000485039799         91.0269009        0.352029762        -70.7259241     0.000491554674        -79.4280714
                   0.000485039799         91.0269009       0.0774848659        -94.8011232     0.000173390922        -115.882207        0.996958857        -5.16725794
                      0.352029762        -70.7259241     0.000173390922        -115.882207        0.935766696        -160.289381     0.000175719844          73.662821
                   0.000491554674        -79.4280714        0.996958857        -5.16725794     0.000175719844          73.662821       0.0774765736        -95.4822343

         310000000       0.939506885        -161.824881     0.000502271507         90.6364964        0.342066157        -71.3792281     0.000509471929        -79.5060458
                   0.000502271507         90.6364964       0.0800525663        -94.9618144     0.000177398984        -115.757039        0.996755406        -5.33885714
                      0.342066157        -71.3792281     0.000177398984        -115.757039        0.939450371        -160.928144     0.000179942126         74.1004187
                   0.000509471929        -79.5060458        0.996755406        -5.33885714     0.000179942126         74.1004187       0.0800438669        -95.6655814

         320000000       0.942889203        -162.458924     0.000519478753         90.2550029        0.332620706        -71.9987131      0.00052741047        -79.5756623
                   0.000519478753         90.2550029       0.0826187191        -95.1224237     0.000181417354        -115.632647        0.996545434        -5.51039552
                      0.332620706        -71.9987131     0.000181417354        -115.632647        0.942831852        -161.533078     0.000184187345         74.5366877
                    0.00052741047        -79.5756623        0.996545434        -5.51039552     0.000184187345         74.5366877       0.0826096062        -95.8488476

         330000000       0.946000532        -163.061783     0.000536662356         89.8819194         0.32365696        -72.5870078     0.000545372508        -79.6374373
                   0.000536662356         89.8819194       0.0851832732        -95.2829509     0.000185446783        -115.510156        0.996328954        -5.68187119
                       0.32365696        -72.5870078     0.000185446783        -115.510156        0.945942369        -162.106812     0.000188456626         74.9704873
                   0.000545372508        -79.6374373        0.996328954        -5.68187119     0.000188456626         74.9704873       0.0851737406        -96.0320327

