!AWR Design Environment (3650) Fri Nov 02 08:09:43 2007
!DC added
!freq-unit  param-type  data-format  keyword  impedance-ohms
# GHz           S          MA           R         50
!-----------------------------------------------------------------------------
0.00	         	0.5			180		0.5		0		0.5		0		0.5		0
			0.5			0		0.5		180		0.5		0		0.5		0
			0.5			0		0.5		0		0.5		-180		0.5		0
			0.5			0		0.5		0		0.5		0		0.5		180

 0.05         0.50004     -179.66       0.49999     -0.44797      0.49999     -0.4681       0.49999     -0.448       
              0.49999     -0.44797      0.50004     -179.67       0.49998     -0.41151      0.49999     -0.51458     
              0.49999     -0.4681       0.49998     -0.41151      0.50005     -179.59       0.49998     -0.41089     
              0.49999     -0.448        0.49999     -0.51458      0.49998     -0.41089      0.50004     -179.67      

 0.2          0.50053     -178.66       0.49982     -1.7915       0.49981     -1.8721       0.49982     -1.7916      
              0.49982     -1.7915       0.50057     -178.7        0.49972     -1.6456       0.49986     -2.058       
              0.49981     -1.8721       0.49972     -1.6456       0.50071     -178.37       0.49972     -1.6432      
              0.49982     -1.7916       0.49986     -2.058        0.49972     -1.6432       0.50057     -178.7       

 0.4          0.50207     -177.33       0.4993      -3.5808       0.49928     -3.742        0.4993      -3.5811      
              0.4993      -3.5808       0.50226     -177.42       0.49893     -3.289        0.49945     -4.1144      
              0.49928     -3.742        0.49893     -3.289        0.5028      -176.75       0.49893     -3.284       
              0.4993      -3.5811       0.49945     -4.1144       0.49893     -3.284        0.50226     -177.41      

 0.6          0.5046      -176.04       0.49844     -5.3659       0.4984      -5.6078       0.49844     -5.3663      
              0.49844     -5.3659       0.50502     -176.17       0.49762     -4.9279       0.4988      -6.1674      
              0.4984      -5.6078       0.49762     -4.9279       0.50623     -175.19       0.49761     -4.9204      
              0.49844     -5.3663       0.4988      -6.1674       0.49761     -4.9204       0.50503     -176.16      

 0.8          0.50809     -174.78       0.49726     -7.1447       0.49718     -7.4674       0.49726     -7.1453      
              0.49726     -7.1447       0.50883     -174.97       0.4958      -6.5601       0.49789     -8.2157      
              0.49718     -7.4674       0.4958      -6.5601       0.51096     -173.68       0.49579     -6.5501      
              0.49726     -7.1453       0.49789     -8.2157       0.49579     -6.5501       0.50884     -174.96      

 1            0.5125      -173.58       0.49576     -8.9152       0.49564     -9.319        0.49576     -8.9159      
              0.49576     -8.9152       0.51362     -173.83       0.49348     -8.1837       0.49675     -10.258      
              0.49564     -9.319        0.49348     -8.1837       0.51689     -172.25       0.49346     -8.1712      
              0.49576     -8.9159       0.49675     -10.258       0.49346     -8.1712       0.51363     -173.81      

 1.2          0.51775     -172.44       0.49394     -10.676       0.49377     -11.161       0.49394     -10.676      
              0.49394     -10.676       0.51933     -172.76       0.49067     -9.7965       0.49537     -12.292      
              0.49377     -11.161       0.49067     -9.7965       0.52395     -170.9        0.49065     -9.7815      
              0.49394     -10.676       0.49537     -12.292       0.49065     -9.7815       0.51934     -172.75      

 1.4          0.52378     -171.36       0.49183     -12.424       0.49159     -12.991       0.49183     -12.425      
              0.49183     -12.424       0.52587     -171.77       0.48739     -11.397       0.49378     -14.317      
              0.49159     -12.991       0.48739     -11.397       0.53204     -169.66       0.48736     -11.379      
              0.49183     -12.425       0.49378     -14.317       0.48736     -11.379       0.52589     -171.76      

 1.6          0.53052     -170.37       0.48943     -14.159       0.48912     -14.807       0.48943     -14.16       
              0.48943     -14.159       0.53316     -170.88       0.48366     -12.982       0.49199     -16.332      
              0.48912     -14.807       0.48366     -12.982       0.54104     -168.53       0.48362     -12.962      
              0.48943     -14.16        0.49199     -16.332       0.48362     -12.962       0.53319     -170.86      

 1.8          0.5379      -169.45       0.48676     -15.878       0.48637     -16.609       0.48676     -15.879      
              0.48676     -15.878       0.54111     -170.07       0.47949     -14.552       0.49002     -18.336      
              0.48637     -16.609       0.47949     -14.552       0.55085     -167.51       0.47944     -14.529      
              0.48676     -15.879       0.49002     -18.336       0.47944     -14.529       0.54115     -170.05      

 2            0.54583     -168.62       0.48383     -17.58        0.48335     -18.394       0.48383     -17.582      
              0.48383     -17.58        0.54963     -169.37       0.4749      -16.103       0.48788     -20.328      
              0.48335     -18.394       0.4749      -16.103       0.56134     -166.6        0.47484     -16.078      
              0.48383     -17.582       0.48788     -20.328       0.47484     -16.078       0.54967     -169.35      

 2.2          0.55424     -167.87       0.48065     -19.264       0.48007     -20.162       0.48065     -19.266      
              0.48065     -19.264       0.55862     -168.76       0.46991     -17.636       0.4856      -22.308      
              0.48007     -20.162       0.46991     -17.636       0.57242     -165.81       0.46985     -17.607      
              0.48065     -19.266       0.4856      -22.308       0.46985     -17.607       0.55868     -168.73      

 2.4          0.56305     -167.21       0.47726     -20.929       0.47657     -21.911       0.47726     -20.931      
              0.47726     -20.929       0.56801     -168.24       0.46455     -19.147       0.48319     -24.274      
              0.47657     -21.911       0.46455     -19.147       0.58397     -165.12       0.46447     -19.116      
              0.47726     -20.931       0.48319     -24.274       0.46447     -19.116       0.56807     -168.22      

 2.6          0.57217     -166.62       0.47365     -22.573       0.47285     -23.64        0.47365     -22.575      
              0.47365     -22.573       0.57769     -167.82       0.45884     -20.636       0.48068     -26.226      
              0.47285     -23.64        0.45884     -20.636       0.5959      -164.54       0.45875     -20.602      
              0.47365     -22.575       0.48068     -26.226       0.45875     -20.602       0.57776     -167.8       

 2.8          0.58156     -166.11       0.46986     -24.195       0.46894     -25.348       0.46986     -24.198      
              0.46986     -24.195       0.5876      -167.5        0.4528      -22.103       0.4781      -28.165      
              0.46894     -25.348       0.4528      -22.103       0.6081      -164.06       0.4527      -22.066      
              0.46986     -24.198       0.4781      -28.165       0.4527      -22.066       0.58768     -167.47      

 2.9          0.58632     -165.89       0.4679      -24.998       0.46691     -26.194       0.4679      -25          
              0.4679      -24.998       0.59261     -167.36       0.44967     -22.827       0.47678     -29.13       
              0.46691     -26.194       0.44967     -22.827       0.61428     -163.86       0.44955     -22.788      
              0.4679      -25           0.47678     -29.13        0.44955     -22.788       0.59269     -167.34      

 2.95         0.58872     -165.78       0.4669      -25.398       0.46588     -26.614       0.4669      -25.4        
              0.4669      -25.398       0.59512     -167.31       0.44807     -23.187       0.47612     -29.611      
              0.46588     -26.614       0.44807     -23.187       0.61738     -163.77       0.44796     -23.147      
              0.4669      -25.4         0.47612     -29.611       0.44796     -23.147       0.59521     -167.28      

 3            0.59113     -165.68       0.46589     -25.795       0.46484     -27.034       0.4659      -25.798      
              0.46589     -25.795       0.59764     -167.26       0.44646     -23.545       0.47546     -30.091      
              0.46484     -27.034       0.44646     -23.545       0.62049     -163.68       0.44634     -23.505      
              0.4659      -25.798       0.47546     -30.091       0.44634     -23.505       0.59773     -167.23      

 3.1          0.59597     -165.49       0.46385     -26.587       0.46273     -27.869       0.46386     -26.589      
              0.46385     -26.587       0.6027      -167.17       0.44318     -24.257       0.47413     -31.049      
              0.46273     -27.869       0.44318     -24.257       0.62674     -163.52       0.44305     -24.215      
              0.46386     -26.589       0.47413     -31.049       0.44305     -24.215       0.60279     -167.14      

 3.2          0.60083     -165.32       0.46178     -27.372       0.46058     -28.698       0.46178     -27.375      
              0.46178     -27.372       0.60776     -167.1        0.43983     -24.962       0.4728      -32.003      
              0.46058     -28.698       0.43983     -24.962       0.633       -163.38       0.4397      -24.919      
              0.46178     -27.375       0.4728      -32.003       0.4397      -24.919       0.60786     -167.07      

 3.25         0.60327     -165.24       0.46072     -27.763       0.4595      -29.11        0.46073     -27.765      
              0.46072     -27.763       0.61029     -167.08       0.43813     -25.312       0.47214     -32.479      
              0.4595      -29.11        0.43813     -25.312       0.63614     -163.32       0.43799     -25.268      
              0.46073     -27.765       0.47214     -32.479       0.43799     -25.268       0.61039     -167.05      

 3.3          0.60571     -165.16       0.45967     -28.152       0.4584      -29.522       0.45967     -28.154      
              0.45967     -28.152       0.61282     -167.06       0.43642     -25.661       0.47147     -32.954      
              0.4584      -29.522       0.43642     -25.661       0.63927     -163.27       0.43628     -25.616      
              0.45967     -28.154       0.47147     -32.954       0.43628     -25.616       0.61292     -167.03      

 3.35         0.60815     -165.09       0.4586      -28.539       0.4573      -29.931       0.4586      -28.542      
              0.4586      -28.539       0.61535     -167.04       0.43469     -26.008       0.47081     -33.429      
              0.4573      -29.931       0.43469     -26.008       0.64241     -163.22       0.43454     -25.962      
              0.4586      -28.542       0.47081     -33.429       0.43454     -25.962       0.61546     -167.01      

 3.4          0.6106      -165.02       0.45752     -28.925       0.45619     -30.339       0.45752     -28.928      
              0.45752     -28.925       0.61788     -167.03       0.43295     -26.353       0.47014     -33.903      
              0.45619     -30.339       0.43295     -26.353       0.64555     -163.17       0.4328      -26.307      
              0.45752     -28.928       0.47014     -33.903       0.4328      -26.307       0.61799     -167         

 3.45         0.61305     -164.96       0.45644     -29.31        0.45507     -30.746       0.45644     -29.313      
              0.45644     -29.31        0.62041     -167.02       0.43119     -26.697       0.46948     -34.376      
              0.45507     -30.746       0.43119     -26.697       0.64869     -163.13       0.43103     -26.65       
              0.45644     -29.313       0.46948     -34.376       0.43103     -26.65        0.62051     -166.99      

 3.5          0.6155      -164.9        0.45535     -29.693       0.45394     -31.151       0.45535     -29.696      
              0.45535     -29.693       0.62293     -167.02       0.42941     -27.039       0.46883     -34.848      
              0.45394     -31.151       0.42941     -27.039       0.65182     -163.1        0.42925     -26.991      
              0.45535     -29.696       0.46883     -34.848       0.42925     -26.991       0.62303     -166.99      

 3.55         0.61795     -164.84       0.45425     -30.074       0.4528      -31.555       0.45426     -30.077      
              0.45425     -30.074       0.62544     -167.03       0.42763     -27.379       0.46817     -35.32       
              0.4528      -31.555       0.42763     -27.379       0.65495     -163.06       0.42746     -27.33       
              0.45426     -30.077       0.46817     -35.32        0.42746     -27.33        0.62555     -166.99      

 3.6          0.62039     -164.79       0.45315     -30.454       0.45166     -31.957       0.45315     -30.457      
              0.45315     -30.454       0.62795     -167.03       0.42583     -27.718       0.46752     -35.791      
              0.45166     -31.957       0.42583     -27.718       0.65808     -163.04       0.42566     -27.668      
              0.45315     -30.457       0.46752     -35.791       0.42566     -27.668       0.62806     -167         

 3.65         0.62284     -164.74       0.45204     -30.833       0.45051     -32.358       0.45204     -30.836      
              0.45204     -30.833       0.63045     -167.05       0.42401     -28.055       0.46687     -36.261      
              0.45051     -32.358       0.42401     -28.055       0.66121     -163.01       0.42384     -28.004      
              0.45204     -30.836       0.46687     -36.261       0.42384     -28.004       0.63056     -167.02      

 3.7          0.62528     -164.7        0.45092     -31.209       0.44936     -32.758       0.45093     -31.212      
              0.45092     -31.209       0.63294     -167.06       0.42218     -28.39        0.46623     -36.731      
              0.44936     -32.758       0.42218     -28.39        0.66432     -163          0.42201     -28.339      
              0.45093     -31.212       0.46623     -36.731       0.42201     -28.339       0.63306     -167.03      

 3.75         0.62773     -164.65       0.4498      -31.585       0.44819     -33.155       0.44981     -31.588      
              0.4498      -31.585       0.63543     -167.09       0.42034     -28.724       0.46559     -37.2        
              0.44819     -33.155       0.42034     -28.724       0.66743     -162.98       0.42016     -28.672      
              0.44981     -31.588       0.46559     -37.2         0.42016     -28.672       0.63555     -167.05      

 3.8          0.63017     -164.62       0.44868     -31.958       0.44703     -33.552       0.44868     -31.962      
              0.44868     -31.958       0.6379      -167.11       0.41849     -29.056       0.46496     -37.668      
              0.44703     -33.552       0.41849     -29.056       0.67054     -162.97       0.4183      -29.003      
              0.44868     -31.962       0.46496     -37.668       0.4183      -29.003       0.63802     -167.08      

 3.9          0.63503     -164.55       0.44641     -32.701       0.44467     -34.34        0.44641     -32.705      
              0.44641     -32.701       0.64282     -167.18       0.41475     -29.715       0.46371     -38.603      
              0.44467     -34.34        0.41475     -29.715       0.67672     -162.96       0.41455     -29.659      
              0.44641     -32.705       0.46371     -38.603       0.41455     -29.659       0.64295     -167.14      

 4            0.63987     -164.49       0.44412     -33.438       0.4423      -35.123       0.44412     -33.441      
              0.44412     -33.438       0.64769     -167.26       0.41096     -30.366       0.46249     -39.536      
              0.4423      -35.123       0.41096     -30.366       0.68287     -162.97       0.41075     -30.309      
              0.44412     -33.441       0.46249     -39.536       0.41075     -30.309       0.64782     -167.23      

 4.1          0.6447      -164.45       0.44181     -34.168       0.43991     -35.899       0.44181     -34.172      
              0.44181     -34.168       0.65251     -167.36       0.40713     -31.011       0.4613      -40.468      
              0.43991     -35.899       0.40713     -31.011       0.68898     -162.99       0.40691     -30.952      
              0.44181     -34.172       0.4613      -40.468       0.40691     -30.952       0.65265     -167.33      

 4.2          0.64949     -164.42       0.43949     -34.893       0.4375      -36.67        0.43949     -34.896      
              0.43949     -34.893       0.65728     -167.48       0.40325     -31.649       0.46015     -41.397      
              0.4375      -36.67        0.40325     -31.649       0.69505     -163.03       0.40303     -31.588      
              0.43949     -34.896       0.46015     -41.397       0.40303     -31.588       0.65741     -167.44      

 4.25         0.65187     -164.41       0.43832     -35.252       0.43628     -37.053       0.43832     -35.256      
              0.43832     -35.252       0.65963     -167.54       0.4013      -31.965       0.45959     -41.861      
              0.43628     -37.053       0.4013      -31.965       0.69806     -163.05       0.40108     -31.903      
              0.43832     -35.256       0.45959     -41.861       0.40108     -31.903       0.65977     -167.5       

 4.3          0.65425     -164.4        0.43715     -35.61        0.43507     -37.435       0.43715     -35.614      
              0.43715     -35.61        0.66198     -167.61       0.39934     -32.28        0.45904     -42.325      
              0.43507     -37.435       0.39934     -32.28        0.70106     -163.08       0.39911     -32.217      
              0.43715     -35.614       0.45904     -42.325       0.39911     -32.217       0.66212     -167.57      

 4.4          0.65898     -164.39       0.4348      -36.322       0.43263     -38.194       0.4348      -36.326      
              0.4348      -36.322       0.66661     -167.76       0.3954      -32.904       0.45797     -43.253      
              0.43263     -38.194       0.3954      -32.904       0.70702     -163.14       0.39515     -32.839      
              0.4348      -36.326       0.45797     -43.253       0.39515     -32.839       0.66675     -167.72      

 4.5          0.66367     -164.39       0.43244     -37.028       0.43018     -38.947       0.43244     -37.032      
              0.43244     -37.028       0.67117     -167.92       0.39141     -33.52        0.45696     -44.18       
              0.43018     -38.947       0.39141     -33.52        0.71292     -163.21       0.39116     -33.453      
              0.43244     -37.032       0.45696     -44.18        0.39116     -33.453       0.67131     -167.88      

 4.55         0.66599     -164.4        0.43126     -37.378       0.42895     -39.321       0.43126     -37.382      
              0.43126     -37.378       0.67342     -168.01       0.38941     -33.826       0.45647     -44.643      
              0.42895     -39.321       0.38941     -33.826       0.71585     -163.26       0.38915     -33.758      
              0.43126     -37.382       0.45647     -44.643       0.38915     -33.758       0.67356     -167.97      

 4.6          0.66831     -164.4        0.43007     -37.727       0.42772     -39.694       0.43008     -37.731      
